;$FILEVERSION=1.1
;$STARTTIME=46111.7398088079
;
;   Start time: 3/30/2026 17:45:19.481.0
;   Generated by PCAN-View v6.0.0.1040
;
;   Message Number
;   |         Time Offset (ms)
;   |         |        Type
;   |         |        |        ID (hex)
;   |         |        |        |     Data Length
;   |         |        |        |     |   Data Bytes (hex) ...
;   |         |        |        |     |   |
;---+--   ----+----  --+--  ----+---  +  -+ -- -- -- -- -- -- --
     1)     50601.4  Rx         0272  8  06 00 04 C1 07 C0 1E 20 
     2)     50601.6  Rx         0249  4  CE 0F 00 00 
     3)     50601.9  Rx         0439  8  00 00 00 00 00 18 02 01 
     4)     50602.1  Rx         02E8  8  02 10 00 00 06 80 A0 22 
     5)     50602.3  Rx         0682  8  00 00 00 40 04 04 F0 F5 
     6)     50602.6  Rx         0261  8  31 00 10 00 89 49 1A 5B 
     7)     50602.8  Rx         078A  8  01 00 03 00 B2 04 8F 02 
     8)     50603.6  Rx         0132  6  28 96 0D 00 4F 40 
     9)     50604.3  Rx         0383  8  A9 18 20 00 3B B0 C0 05 
    10)     50606.3  Rx         0263  8  03 00 00 00 00 00 00 00 
    11)     50606.5  Rx         0428  6  00 00 00 10 00 00 
    12)     50607.2  Rx         0282  8  0C 39 12 09 D8 B4 02 24 
    13)     50608.1  Rx         039D  5  39 50 21 28 00 
    14)     50609.5  Rx         0201  8  02 00 00 00 00 00 00 00 
    15)     50609.8  Rx         0719  8  0D 00 00 00 00 00 00 00 
    16)     50610.3  Rx         0423  7  00 00 10 00 00 00 00 
    17)     50611.0  Rx         0129  8  FF 24 B0 60 01 20 FF 3F 
    18)     50611.5  Rx         03F5  8  00 C8 C8 39 80 0C 00 00 
    19)     50611.9  Rx         0448  6  00 00 10 10 00 00 
    20)     50612.5  Rx         02E1  8  10 21 04 00 10 00 00 04 
    21)     50613.1  Rx         01F8  4  00 00 00 00 
    22)     50613.6  Rx         0132  6  28 96 0D 00 4C 40 
    23)     50613.8  Rx         02A3  8  01 00 00 00 00 20 00 00 
    24)     50614.1  Rx         023E  8  F4 01 3A A6 FA FC CF DA 
    25)     50614.4  Rx         022B  8  FF FF FF FF FF FF FF FF 
    26)     50614.6  Rx         02C1  8  B3 1A 98 00 00 00 00 00 
    27)     50615.2  Rx         03E2  7  02 00 00 00 00 C0 00 
    28)     50615.4  Rx         03C2  8  00 55 55 55 00 00 69 05 
    29)     50616.3  Rx         02C3  8  55 03 A8 06 00 00 12 A5 
    30)     50616.5  Rx         0243  8  04 FC C3 F1 8D 7C FF FF 
    31)     50616.8  Rx         0379  8  0A 00 00 00 04 00 0C 03 
    32)     50617.0  Rx         03A1  8  C3 FF FF 35 3E 00 F0 E4 
    33)     50617.3  Rx         0234  8  21 20 02 F4 E8 03 A0 5D 
    34)     50618.5  Rx         0261  8  82 29 2D 02 80 5C 21 05 
    35)     50619.0  Rx         0473  8  00 00 03 00 00 00 00 00 
    36)     50619.3  Rx         0289  8  00 00 00 00 00 00 80 12 
    37)     50619.5  Rx         0324  8  5D 13 ED 40 9D 01 00 00 
    38)     50619.7  Rx         03AE  8  AB 40 00 08 00 00 41 35 
    39)     50620.0  Rx         03E9  8  F0 00 00 40 00 00 00 1C 
    40)     50620.3  Rx         0308  8  00 01 00 A0 01 80 D7 FF 
    41)     50620.5  Rx         031C  8  18 04 72 78 FE FF 07 00 
    42)     50620.6  Rx         05F3  3  6B E0 21 
    43)     50620.9  Rx         03B3  8  10 80 04 30 80 00 B8 88 
    44)     50621.1  Rx         0129  8  45 25 B0 60 00 20 FF 3F 
    45)     50622.4  Rx         0708  5  28 1D 0A 00 00 
    46)     50622.5  Rx         02D1  2  FF 01 
    47)     50622.8  Rx         0381  8  05 00 00 00 80 D9 64 08 
    48)     50623.4  Rx         0139  1  00 
    49)     50623.6  Rx         0132  6  28 96 0D 00 53 40 
    50)     50624.1  Rx         03A2  8  60 25 F3 B8 7C 8A C2 6F 
    51)     50624.4  Rx         02E3  7  01 00 00 5F 02 0B 00 
    52)     50624.6  Rx         031D  8  00 00 00 00 00 00 00 00 
    53)     50625.1  Rx         02D7  5  00 48 05 00 80 
    54)     50626.3  Rx         0263  8  04 00 00 00 B0 20 00 00 
    55)     50626.6  Rx         02E1  8  29 2A 00 FF 0F 00 00 00 
    56)     50626.8  Rx         045A  8  FD 07 00 7F 02 00 4F 00 
    57)     50627.0  Rx         07AA  8  03 7F F9 90 08 1E 00 00 
    58)     50627.5  Rx         0545  8  01 00 00 00 00 10 80 DB 
    59)     50628.3  Rx         0214  8  00 0F 00 A0 00 00 00 00 
    60)     50630.5  Rx         037A  8  D2 00 00 00 00 00 00 00 
    61)     50631.0  Rx         0129  8  9F 26 B0 60 00 20 FF 3F 
    62)     50631.2  Rx         04E2  8  04 36 20 83 02 20 00 00 
    63)     50632.2  Rx         0505  8  00 03 3D 1B A0 A6 00 00 
    64)     50632.3  Rx         0225  4  15 45 D2 00 
    65)     50632.6  Rx         0441  8  72 01 B6 C3 58 00 3D EA 
    66)     50633.5  Rx         0421  7  00 14 00 00 00 D0 48 
    67)     50633.7  Rx         0132  6  28 96 0D 00 54 40 
    68)     50634.5  Rx         0737  7  03 00 00 00 E0 F0 80 
    69)     50634.7  Rx         0201  8  03 00 00 00 00 00 00 00 
    70)     50635.0  Rx         0261  8  5B 4C 0A 00 00 40 35 54 
    71)     50635.2  Rx         02C1  8  04 00 00 00 00 00 00 00 
    72)     50635.5  Rx         0677  8  04 00 00 00 00 00 00 00 
    73)     50635.6  Rx         022A  4  00 00 1D 18 
    74)     50635.9  Rx         0718  7  00 00 00 00 00 00 00 
    75)     50636.3  Rx         0243  8  00 FC CF 0C 9A 44 0D 49 
    76)     50637.2  Rx         0262  8  0B 00 D1 FA 00 F0 92 12 
    77)     50637.5  Rx         0359  8  0E 04 00 00 0A 69 55 29 
    78)     50638.3  Rx         0283  6  00 00 00 00 40 00 
    79)     50640.1  Rx         01FB  8  05 02 00 00 00 00 00 00 
    80)     50640.5  Rx         02E1  8  02 00 00 00 FF 00 02 00 
    81)     50641.0  Rx         0129  8  88 27 B0 60 00 20 FF 3F 
    82)     50643.2  Rx         0552  8  00 00 00 00 00 00 00 57 
    83)     50643.6  Rx         0132  6  28 96 0D 00 56 40 
    84)     50644.3  Rx         03C0  8  02 00 00 00 00 00 00 00 
    85)     50644.6  Rx         038A  8  00 00 00 00 00 00 00 00 
    86)     50646.3  Rx         0263  8  E0 43 F6 6A A6 4F 5F 1F 
    87)     50646.5  Rx         02B3  8  0B 83 FE FE FF 01 A0 14 
    88)     50648.0  Rx         039D  5  3A 51 21 28 00 
    89)     50649.1  Rx         0422  6  F2 06 04 00 00 00 
    90)     50650.3  Rx         0103  8  22 B3 88 04 C2 12 21 32 
    91)     50650.5  Rx         0221  8  41 01 55 51 01 02 E0 EE 
    92)     50650.8  Rx         0261  8  CC 00 78 4B 00 40 44 41 
    93)     50651.0  Rx         0129  8  5F 28 B0 60 00 20 FF 3F 
    94)     50651.2  Rx         0229  3  DD 06 00 
    95)     50651.4  Rx         0249  4  9B 00 00 00 
    96)     50651.6  Rx         054F  8  00 00 00 00 00 00 00 00 
    97)     50651.9  Rx         039A  8  1C 1F FB 96 FF FD FD 61 
    98)     50653.6  Rx         0132  6  28 96 0D 00 51 40 
    99)     50653.9  Rx         023E  8  F4 01 3A A6 FA FC DF EA 
   100)     50654.5  Rx         02E1  8  03 6D 66 02 1B 9A 00 00 
   101)     50654.7  Rx         02C1  8  50 48 FE 00 50 8E 02 00 
   102)     50654.9  Rx         0419  1  00 
   103)     50655.2  Rx         02C2  8  55 5B A9 06 00 00 12 A5 
   104)     50655.8  Rx         02D2  8  54 2F C0 4E 0B 07 6F 01 
   105)     50656.1  Rx         0212  8  59 1C 02 40 83 05 30 43 
   106)     50656.3  Rx         0123  8  00 00 12 12 D2 00 00 00 
   107)     50656.4  Rx         020E  2  12 02 
   108)     50656.7  Rx         0243  8  01 FC 40 47 3D 00 63 63 
   109)     50657.0  Rx         0252  8  E4 1B 52 06 8C 28 1D 00 
   110)     50657.1  Rx         0281  6  1A 00 FF 1F 00 01 
   111)     50657.4  Rx         0292  8  FB B2 BB 70 C2 01 E6 00 
   112)     50657.6  Rx         02A2  7  00 00 00 00 00 00 00 
   113)     50657.7  Rx         02F2  2  62 02 
   114)     50658.0  Rx         03A2  8  01 00 10 00 00 00 00 00 
   115)     50659.3  Rx         02C4  8  E7 06 AF 90 81 0C 16 07 
   116)     50659.5  Rx         0201  8  00 32 51 1A 00 E4 FF 00 
   117)     50659.8  Rx         0204  8  66 02 0E 0E 00 78 00 01 
   118)     50659.9  Rx         0264  6  D8 0D 9E 0E 78 00 
   119)     50660.2  Rx         0224  8  04 08 00 A0 E3 00 10 08 
   120)     50660.4  Rx         02B4  6  3D 05 0E 0F 01 01 
   121)     50660.6  Rx         034A  8  00 17 00 20 00 00 00 60 
   122)     50660.9  Rx         0381  8  06 00 00 00 00 00 00 00 
   123)     50661.1  Rx         0129  8  0A 29 B0 60 00 20 FF 3F 
   124)     50661.4  Rx         021D  8  AE 18 49 0C 8C 00 30 05 
   125)     50661.6  Rx         03AE  8  AB 40 00 08 00 00 51 45 
   126)     50661.8  Rx         025D  8  70 91 29 AC 04 F5 00 00 
   127)     50662.1  Rx         03C4  8  12 67 DB 31 70 EE C3 47 
   128)     50662.3  Rx         027D  8  00 00 00 00 00 00 00 00 
   129)     50662.5  Rx         029D  4  00 00 00 20 
   130)     50662.7  Rx         03A3  8  14 D0 00 00 98 0B FC 01 
   131)     50662.9  Rx         02BD  4  00 00 00 00 
   132)     50663.1  Rx         0407  7  11 06 00 00 00 00 00 
   133)     50663.2  Rx         0409  1  00 
   134)     50663.4  Rx         041D  1  34 
   135)     50663.6  Rx         043B  8  00 7F 00 FF 00 00 00 00 
   136)     50663.8  Rx         0132  6  28 96 0D 00 4D 40 
   137)     50664.0  Rx         043D  6  25 18 FF 1F FF 02 
   138)     50664.3  Rx         022B  8  FF FF FF FF FF FF FF FF 
   139)     50664.5  Rx         0400  7  00 E0 FB BE EF FB 00 
   140)     50664.7  Rx         049D  6  00 00 00 00 00 40 
   141)     50664.9  Rx         0545  8  02 00 03 00 00 00 90 DF 
   142)     50665.1  Rx         0719  8  33 00 10 00 00 00 00 00 
   143)     50665.4  Rx         03A8  8  01 03 00 00 00 02 01 00 
   144)     50665.7  Rx         02F9  8  D0 FB 07 20 00 00 00 00 
   145)     50665.9  Rx         03C2  8  29 55 00 00 00 00 00 00 
   146)     50666.1  Rx         075D  8  04 00 00 00 00 00 00 00 
   147)     50666.4  Rx         0263  8  D9 4B EE 62 AE 4F 5F 1F 
   148)     50666.6  Rx         0261  8  05 22 F1 C7 9A 42 50 39 
   149)     50666.8  Rx         03A1  8  88 42 0C 8A 01 14 02 37 
   150)     50667.1  Rx         03C8  8  03 00 00 00 00 00 00 00 
   151)     50667.3  Rx         0234  8  2D 19 03 00 37 00 B4 CF 
   152)     50668.3  Rx         0393  8  06 00 02 D1 07 C0 1E 20 
   153)     50668.5  Rx         02E1  8  FC 1B 89 F9 96 84 09 00 
   154)     50668.8  Rx         004F  8  AB 17 7F 42 1B 61 AC 15 
   155)     50668.9  Rx         03BC  4  00 00 6E 6E 
   156)     50669.1  Rx         0333  5  84 0C 2F 07 00 
   157)     50669.4  Rx         0334  8  BF 3F 14 80 FC 07 42 0E 
   158)     50669.6  Rx         03FD  8  00 00 00 3C 20 01 03 80 
   159)     50671.0  Rx         0129  8  D5 2A B0 60 00 20 FF 3F 
   160)     50671.2  Rx         01FA  3  1A C0 01 
   161)     50671.4  Rx         0420  7  28 01 40 4B 00 80 04 
   162)     50671.9  Rx         03E8  8  02 00 00 00 00 00 00 00 
   163)     50672.6  Rx         03F9  8  03 00 00 00 00 00 00 00 
   164)     50673.6  Rx         0132  6  28 96 0D 00 51 40 
   165)     50674.2  Rx         0207  8  00 00 00 00 00 00 00 00 
   166)     50674.5  Rx         020C  8  3A 78 39 1E 1C 01 30 0E 
   167)     50674.7  Rx         02C1  8  21 2B 0D 0A 02 00 00 00 
   168)     50674.9  Rx         0677  8  00 00 00 00 00 00 00 00 
   169)     50676.3  Rx         0243  8  02 FC 3B 0F 05 63 00 00 
   170)     50676.5  Rx         045A  8  44 46 47 C6 5F 23 47 40 
   171)     50676.8  Rx         0788  8  01 00 00 00 FF A1 F8 12 
   172)     50677.1  Rx         0242  3  10 55 84 
   173)     50678.5  Rx         0340  8  08 00 00 00 00 00 00 00 
   174)     50679.7  Rx         0339  8  01 41 02 00 00 03 40 0C 
   175)     50680.3  Rx         04E3  8  04 18 60 81 07 60 00 00 
   176)     50681.0  Rx         0129  8  24 2B B0 60 00 20 FF 3F 
   177)     50681.8  Rx         07A8  8  C0 CC B1 63 00 00 82 00 
   178)     50682.5  Rx         02E1  8  05 00 00 00 00 30 26 00 
   179)     50682.7  Rx         0261  8  00 10 0C 00 FF 4F 60 F8 
   180)     50683.0  Rx         0441  8  3A 85 89 00 32 00 00 E3 
   181)     50683.2  Rx         0360  8  01 00 00 00 00 00 00 00 
   182)     50683.6  Rx         0132  6  28 96 0D 00 51 40 
   183)     50684.5  Rx         0201  8  59 38 98 00 01 00 00 00 
   184)     50686.3  Rx         0343  8  00 91 48 DE 98 00 00 00 
   185)     50686.6  Rx         01F9  8  00 00 00 00 00 00 00 00 
   186)     50686.8  Rx         0263  8  02 00 A0 47 0F 3C 3C 41 
   187)     50687.0  Rx         0288  8  03 16 00 8F 80 00 51 03 
   188)     50687.2  Rx         0113  3  01 97 01 
   189)     50687.3  Rx         07F4  1  01 
   190)     50687.6  Rx         07FF  8  09 EF 00 00 00 00 00 00 
   191)     50687.8  Rx         0318  8  1A 03 0A 16 1E 2E 2B CF 
   192)     50688.1  Rx         0458  7  00 00 20 00 00 00 00 
   193)     50688.2  Rx         039D  5  3B 52 21 28 00 
   194)     50689.2  Rx         0102  8  22 B3 48 02 B6 44 A1 09 
   195)     50689.5  Rx         0241  7  36 32 4C 0F 8F 55 00 
   196)     50690.2  Rx         03A2  8  B2 A7 FF 7F 00 00 00 00 
   197)     50690.4  Rx         01FB  8  00 00 00 00 00 00 00 00 
   198)     50691.0  Rx         0129  8  2D 2C B0 60 FF 1F FF 3F 
   199)     50691.9  Rx         0228  8  03 16 00 8F 80 00 41 93 
   200)     50692.3  Rx         03C3  8  00 00 00 00 00 51 00 00 
   201)     50692.5  Rx         03E3  4  00 00 00 00 
   202)     50693.5  Rx         0545  8  70 02 3F 80 99 98 A9 55 
   203)     50693.7  Rx         0119  4  00 00 00 00 
   204)     50693.9  Rx         0132  6  28 96 0D 00 55 40 
   205)     50694.1  Rx         023E  8  F4 01 3A A6 FA FC EF FA 
   206)     50694.3  Rx         0739  5  2B 06 22 01 00 
   207)     50694.5  Rx         02C1  8  02 19 06 00 00 D0 92 09 
   208)     50695.2  Rx         0122  8  00 00 12 12 D2 00 00 00 
   209)     50695.4  Rx         0227  8  EA 03 19 00 41 00 00 81 
   210)     50695.7  Rx         0247  8  2F 0F FF 0F 00 46 02 00 
   211)     50696.3  Rx         0243  8  03 00 00 80 0F 4D 08 00 
   212)     50696.6  Rx         02A8  8  02 10 00 00 06 80 C0 02 
   213)     50696.8  Rx         02E1  8  46 80 02 00 10 FD CA 69 
   214)     50698.3  Rx         0553  8  00 00 00 00 00 00 00 58 
   215)     50698.5  Rx         0261  8  31 00 35 00 89 49 7A E0 
   216)     50698.8  Rx         0381  8  07 00 00 00 00 00 00 00 
   217)     50699.1  Rx         0287  8  38 39 37 38 01 03 00 00 
   218)     50699.4  Rx         025B  8  D3 C0 02 05 CA 8C E0 2B 
   219)     50699.6  Rx         03AE  8  AB 40 00 08 00 00 61 55 
   220)     50700.5  Rx         02F1  8  0A 85 01 00 00 00 00 00 
   221)     50700.7  Rx         0221  8  40 41 05 15 00 50 F1 FF 
   222)     50701.0  Rx         0439  8  00 00 00 00 00 18 02 01 
   223)     50701.2  Rx         0129  8  56 2D B0 60 00 20 FF 3F 
   224)     50701.5  Rx         0272  8  09 80 63 00 00 00 00 00 
   225)     50701.6  Rx         0249  4  E8 01 00 00 
   226)     50701.9  Rx         078A  8  01 00 04 00 01 06 9C 00 
   227)     50702.1  Rx         02E8  8  02 10 00 00 06 80 B0 32 
   228)     50703.4  Rx         0682  8  00 00 00 40 04 04 00 05 
   229)     50703.6  Rx         0132  6  28 96 0D 00 51 40 
   230)     50704.3  Rx         0383  8  A9 18 20 00 3B B0 C0 05 
   231)     50706.1  Rx         07AA  8  04 00 0F C0 00 1A 00 00 
   232)     50706.4  Rx         0263  8  03 00 00 00 00 00 00 00 
   233)     50706.6  Rx         02B3  8  EC E8 A8 C2 18 51 53 00 
   234)     50706.8  Rx         0428  6  00 00 00 10 00 00 
   235)     50707.2  Rx         0282  8  04 39 12 09 D8 B4 02 24 
   236)     50709.5  Rx         0201  8  02 00 00 00 00 00 00 00 
   237)     50709.7  Rx         0719  8  03 00 00 00 00 00 00 00 
   238)     50710.3  Rx         0423  7  00 00 10 00 00 00 00 
   239)     50710.5  Rx         02E1  8  10 21 04 00 10 00 00 04 
   240)     50711.0  Rx         0129  8  E0 2E B0 60 FF 1F FF 3F 
   241)     50711.5  Rx         03F5  8  00 C8 C8 39 80 0C 00 00 
   242)     50711.8  Rx         0448  6  00 00 10 10 00 00 
   243)     50713.1  Rx         01F8  4  00 00 00 00 
   244)     50713.6  Rx         0132  6  28 96 0D 00 4D 40 
   245)     50713.8  Rx         02A3  8  01 00 00 00 00 20 00 00 
   246)     50714.2  Rx         022B  8  FF FF FF FF FF FF FF FF 
   247)     50714.5  Rx         0261  8  82 29 2D 02 80 5C 81 65 
   248)     50714.8  Rx         02C1  8  B3 1A 98 00 00 00 00 00 
   249)     50715.0  Rx         0677  8  01 00 00 00 00 00 00 00 
   250)     50715.2  Rx         040A  8  01 10 00 00 00 00 80 9F 
   251)     50715.5  Rx         03C2  8  00 55 55 55 00 00 69 05 
   252)     50716.3  Rx         02C3  8  00 00 00 4C 01 00 80 CB 
   253)     50716.6  Rx         0243  8  04 FC D3 F1 8D 7C FF FF 
   254)     50716.8  Rx         0379  8  0B 00 00 00 00 00 12 09 
   255)     50717.0  Rx         03A1  8  C3 FF FF 27 3E 00 10 F6 
   256)     50717.3  Rx         0234  8  23 20 02 F4 E8 03 C0 7F 
   257)     50717.8  Rx         0332  6  5D 1F CA 07 55 25 
   258)     50718.1  Rx         0300  8  12 78 CE A8 7F 02 F3 C3 
   259)     50718.2  Rx         0311  2  FF 03 
   260)     50718.4  Rx         03D2  8  6C 75 2E 03 04 7A 43 03 
   261)     50718.7  Rx         02F3  8  8E 0E 0B 04 00 20 00 02 
   262)     50718.9  Rx         03F2  8  0A 3E 60 C6 40 C5 B2 0C 
   263)     50719.2  Rx         0273  8  89 E1 10 40 C8 02 30 01 
   264)     50719.4  Rx         0289  8  00 00 00 00 00 00 80 12 
   265)     50719.6  Rx         0452  3  FD 9C 00 
   266)     50719.8  Rx         03FD  8  01 00 02 00 00 18 53 80 
   267)     50720.1  Rx         0472  8  C0 70 00 C0 00 E2 FF 7F 
   268)     50720.3  Rx         031C  8  18 04 72 78 FE FF 07 00 
   269)     50720.5  Rx         0492  7  F3 02 FF 0F 28 00 00 
   270)     50721.0  Rx         0129  8  78 2F B0 60 00 20 FF 3F 
   271)     50722.4  Rx         02D1  2  FF 01 
   272)     50723.2  Rx         03A2  8  60 A5 73 B7 7C 8A C2 6F 
   273)     50723.4  Rx         0139  1  00 
   274)     50723.6  Rx         0132  6  28 96 0D 00 51 40 
   275)     50723.9  Rx         0320  8  00 00 00 00 00 00 00 00 
   276)     50724.1  Rx         0372  8  00 1E C0 4C C2 12 64 22 
   277)     50724.3  Rx         0401  8  00 2A AC 9C B0 9C AD 9C 
   278)     50724.6  Rx         02E1  8  29 2A 00 FF 0F 00 00 00 
   279)     50724.8  Rx         031D  8  00 00 00 00 00 00 00 00 
   280)     50725.1  Rx         02D7  5  00 48 05 00 80 
   281)     50725.4  Rx         03AE  8  AB 40 00 08 00 00 70 64 
   282)     50726.3  Rx         0263  8  04 00 00 00 B0 20 00 00 
   283)     50726.6  Rx         045A  8  FD 07 00 7F 02 00 4F 00 
   284)     50726.8  Rx         0545  8  01 00 00 00 00 10 B0 0B 
   285)     50728.1  Rx         039D  5  3C 53 21 28 00 
   286)     50728.3  Rx         0214  8  00 0F 00 A0 00 00 00 00 
   287)     50730.5  Rx         0261  8  5B 4C 0A 00 00 40 95 B4 
   288)     50730.7  Rx         037A  8  7B 00 00 00 00 00 00 00 
   289)     50731.0  Rx         0129  8  9D 20 B0 60 00 20 FF 3F 
   290)     50731.3  Rx         04E2  8  0D 00 B0 41 02 38 00 00 
   291)     50732.2  Rx         0505  8  0B 86 00 00 00 00 3E 0C 
   292)     50732.4  Rx         0225  4  15 45 D2 00 
   293)     50732.6  Rx         0441  8  72 01 B6 C3 58 00 05 B2 
   294)     50733.5  Rx         0421  7  00 14 00 00 00 D0 48 
   295)     50733.7  Rx         0132  6  28 96 0D 00 54 40 
   296)     50733.9  Rx         023E  8  F4 01 3A A6 FA FC FF 0A 
   297)     50734.5  Rx         02C1  8  04 00 00 00 00 00 00 00 
   298)     50734.8  Rx         0201  8  03 00 00 00 00 00 00 00 
   299)     50735.0  Rx         02BF  7  00 00 00 00 00 00 00 
   300)     50735.7  Rx         022A  4  00 00 1D 18 
   301)     50736.3  Rx         0243  8  00 FC CF 0C 9A 44 0D 49 
   302)     50736.6  Rx         0381  8  08 00 00 00 00 00 00 00 
   303)     50737.2  Rx         0262  8  0B 00 D1 FA 00 F0 92 12 
   304)     50737.6  Rx         0359  8  0F 00 00 00 00 00 00 00 
   305)     50738.3  Rx         0283  6  00 00 00 00 41 00 
   306)     50738.5  Rx         02E1  8  02 00 00 00 FF 00 02 00 
   307)     50740.2  Rx         01FB  8  05 02 00 00 00 00 00 00 
   308)     50741.0  Rx         0129  8  8A 21 B0 60 00 20 FF 3F 
   309)     50743.1  Rx         0552  8  00 00 00 00 00 00 10 67 
   310)     50743.6  Rx         0132  6  28 96 0D 00 54 40 
   311)     50743.8  Rx         0401  8  01 2A B1 9C B1 9C B7 9C 
   312)     50744.3  Rx         03C0  8  03 00 00 00 00 00 00 00 
   313)     50744.6  Rx         038A  8  01 00 00 00 00 00 00 00 
   314)     50746.3  Rx         0263  8  E0 43 F6 6A A6 4F 5F 1F 
   315)     50746.6  Rx         0261  8  CC 00 78 4B 00 40 A4 A1 
   316)     50749.1  Rx         0422  6  F2 06 04 00 00 00 
   317)     50750.3  Rx         0103  8  22 B3 88 04 C2 12 21 32 
   318)     50750.5  Rx         0221  8  41 01 55 51 01 02 00 0E 
   319)     50751.0  Rx         0129  8  C3 22 B0 60 00 20 FF 3F 
   320)     50751.2  Rx         0229  3  F9 07 00 
   321)     50751.3  Rx         0249  4  2A 02 00 00 
   322)     50751.6  Rx         054F  8  00 00 00 00 00 00 00 00 
   323)     50751.9  Rx         039A  8  FD FD FD FD FD 01 00 02 
   324)     50752.5  Rx         02E1  8  03 6D 66 02 1B 9A 00 00 
   325)     50753.6  Rx         0132  6  28 96 0D 00 51 40 
   326)     50754.3  Rx         0419  1  00 
   327)     50754.6  Rx         02C1  8  50 48 FE 00 50 8E 02 00 
   328)     50754.8  Rx         0677  8  02 00 00 00 00 00 00 00 
   329)     50755.2  Rx         02C2  8  20 40 C0 4B 01 00 40 CB 
   330)     50756.2  Rx         03A2  8  01 00 10 00 00 00 00 00 
   331)     50756.4  Rx         0123  8  01 00 00 00 00 3F 00 00 
   332)     50756.5  Rx         020E  2  13 03 
   333)     50756.8  Rx         0243  8  01 FC 40 47 3D 00 63 63 
   334)     50757.0  Rx         0212  8  59 5C 02 40 83 05 30 43 
   335)     50757.2  Rx         0252  8  E4 1B 52 06 8C 28 1D 00 
   336)     50757.4  Rx         0281  6  19 00 FF 1F 00 01 
   337)     50757.7  Rx         0292  8  FB B2 BB 70 C2 01 E6 00 
   338)     50757.9  Rx         02A2  7  00 00 00 00 00 00 00 
   339)     50758.1  Rx         02D2  8  54 2F C0 4E 0B 07 6F 01 
   340)     50758.3  Rx         02F2  2  62 02 
   341)     50758.5  Rx         031A  8  03 00 00 00 00 00 80 A0 
   342)     50758.6  Rx         035F  1  00 
   343)     50758.8  Rx         03D3  3  00 00 00 
   344)     50759.0  Rx         042E  8  00 E0 BF FF FE EF BF FF 
   345)     50759.2  Rx         042F  7  3C AC 99 02 FA 00 FF 
   346)     50759.5  Rx         02C4  8  68 36 E0 78 81 D2 82 A8 
   347)     50759.7  Rx         0201  8  00 33 51 1A 00 E4 FF 00 
   348)     50760.0  Rx         0204  8  66 02 0E 0E 00 78 00 01 
   349)     50760.2  Rx         0264  6  D6 0D 9E 0E 78 00 
   350)     50760.4  Rx         0224  8  04 08 00 A0 E3 00 10 08 
   351)     50760.6  Rx         02B4  6  3B 05 0D 0F 03 01 
   352)     50760.7  Rx         0409  1  00 
   353)     50761.0  Rx         0545  8  02 00 04 00 00 00 C0 10 
   354)     50761.2  Rx         0129  8  D4 23 B0 60 00 20 FF 3F 
   355)     50761.5  Rx         021D  8  AE 18 49 0C 8C 00 30 05 
   356)     50761.7  Rx         02A4  8  A0 3F 7E EB 87 DF FC FF 
   357)     50761.9  Rx         025D  8  70 91 29 AC 04 F5 00 00 
   358)     50762.1  Rx         0364  4  3C 78 36 1F 
   359)     50762.3  Rx         027D  8  00 00 00 00 00 00 00 00 
   360)     50762.6  Rx         0261  8  05 22 F1 C7 9A 42 B0 99 
   361)     50762.7  Rx         029D  4  00 00 00 20 
   362)     50762.9  Rx         03A3  8  14 D0 00 00 98 0B FC 01 
   363)     50763.1  Rx         02BD  4  00 00 00 00 
   364)     50763.4  Rx         03A4  8  01 00 00 00 00 00 00 00 
   365)     50763.5  Rx         041D  1  34 
   366)     50763.7  Rx         043D  6  25 18 FF 1F FF 02 
   367)     50763.9  Rx         0132  6  28 96 0D 00 51 40 
   368)     50764.1  Rx         0401  8  02 2A B4 9C B9 9C BC 9C 
   369)     50764.4  Rx         022B  8  FF FF FF FF FF FF FF FF 
   370)     50764.6  Rx         0400  7  00 E0 FB BE EF FB 00 
   371)     50764.8  Rx         049D  6  00 00 00 00 00 40 
   372)     50765.0  Rx         0719  8  14 00 00 00 00 00 00 00 
   373)     50765.3  Rx         02E2  8  10 00 00 69 02 0B 00 00 
   374)     50765.4  Rx         0362  3  00 00 00 
   375)     50765.7  Rx         02F9  8  D0 FB 07 28 00 00 00 00 
   376)     50765.9  Rx         03AE  8  AB 40 00 08 00 00 80 74 
   377)     50766.1  Rx         03C2  8  29 55 00 00 00 00 00 00 
   378)     50766.4  Rx         0263  8  D9 4B EE 62 AE 4F 5F 1F 
   379)     50766.6  Rx         02B3  8  0D 05 A0 94 06 72 63 01 
   380)     50766.9  Rx         02E1  8  FC 1B 88 F9 96 81 09 00 
   381)     50767.1  Rx         0234  8  2D 19 03 00 37 00 D4 EF 
   382)     50767.3  Rx         03A1  8  88 42 0C 8A 01 14 22 57 
   383)     50767.6  Rx         03C8  8  04 00 00 00 00 00 00 00 
   384)     50767.8  Rx         0672  8  02 00 00 00 00 00 00 00 
   385)     50768.2  Rx         039D  5  3D 54 21 28 00 
   386)     50768.5  Rx         0393  8  09 80 63 00 00 00 00 00 
   387)     50768.7  Rx         0294  8  14 8D 00 00 00 00 00 00 
   388)     50770.6  Rx         03FD  8  02 00 00 00 00 00 00 80 
   389)     50771.0  Rx         0129  8  52 24 B0 60 00 20 FF 3F 
   390)     50771.2  Rx         01FA  3  1A C0 01 
   391)     50771.4  Rx         0420  7  28 01 40 4B 00 00 05 
   392)     50771.9  Rx         03E8  8  03 00 00 00 00 00 00 00 
   393)     50772.6  Rx         03F9  8  04 00 00 00 00 00 00 00 
   394)     50773.6  Rx         0132  6  28 96 0D 00 51 40 
   395)     50773.8  Rx         0207  8  00 00 00 00 00 00 00 00 
   396)     50774.0  Rx         023E  8  F4 01 3A A6 FA FC 0F 1A 
   397)     50774.3  Rx         020C  8  3C 78 39 1E 1C 01 30 0E 
   398)     50774.6  Rx         02C1  8  21 2B 0D 0A 02 00 00 00 
   399)     50774.8  Rx         0381  8  09 00 00 00 00 00 00 00 
   400)     50776.3  Rx         0243  8  02 FC 3B 0F 05 63 00 00 
   401)     50776.5  Rx         045A  8  44 46 47 C6 5F 23 47 40 
   402)     50776.8  Rx         0788  8  02 40 C6 47 4E 00 00 00 
   403)     50777.0  Rx         07AA  8  D5 22 8B 0D 40 08 A6 05 
   404)     50777.2  Rx         0242  3  10 55 84 
   405)     50778.5  Rx         0340  8  09 00 00 00 00 00 00 00 
   406)     50778.8  Rx         0261  8  00 10 0C 00 FF 4F C0 58 
   407)     50779.7  Rx         0339  8  01 41 02 00 00 03 40 0C 
   408)     50780.3  Rx         04E3  8  7D 04 36 B1 00 0A 00 00 
   409)     50780.6  Rx         02E1  8  05 00 00 00 00 30 26 00 
   410)     50781.0  Rx         0129  8  45 25 B0 60 00 20 FF 3F 
   411)     50781.8  Rx         07A8  8  01 00 00 00 FF A1 E8 12 
   412)     50782.5  Rx         0441  8  3A 85 89 00 32 00 08 EB 
   413)     50783.2  Rx         0360  8  02 00 00 00 00 00 00 00 
   414)     50783.6  Rx         0132  6  28 96 0D 00 56 40 
   415)     50783.8  Rx         0372  8  01 88 14 06 40 00 48 01 
   416)     50784.0  Rx         0401  8  03 2A B3 9C A3 9C AB 9C 
   417)     50784.5  Rx         0201  8  59 38 98 00 01 00 00 00 
   418)     50786.3  Rx         0343  8  00 91 48 4E 98 00 00 00 
   419)     50786.6  Rx         01F9  8  00 00 00 00 00 00 00 00 
   420)     50786.8  Rx         0263  8  02 00 A0 47 0F 3C 3C 41 
   421)     50787.1  Rx         0288  8  03 16 00 8F 80 00 61 13 
   422)     50787.2  Rx         0113  3  01 97 01 
   423)     50787.4  Rx         07F4  1  01 
   424)     50787.6  Rx         07FF  8  01 41 53 55 04 04 15 00 
   425)     50787.8  Rx         0318  8  1A 03 0A 16 1E 2E 2D D1 
   426)     50788.0  Rx         0458  7  00 00 20 00 00 00 00 
   427)     50788.5  Rx         07C8  8  11 00 00 00 00 00 00 00 
   428)     50789.2  Rx         0102  8  22 B3 48 02 B6 42 A1 09 
   429)     50789.4  Rx         03A2  8  E2 A7 FF 7F 00 00 00 00 
   430)     50789.7  Rx         0241  7  36 32 4C 0F 8F 55 00 
   431)     50790.2  Rx         01FB  8  00 00 00 00 00 00 00 00 
   432)     50791.0  Rx         0129  8  9F 26 B0 60 00 20 FF 3F 
   433)     50791.9  Rx         0228  8  03 16 00 8F 80 00 51 A3 
   434)     50792.3  Rx         03C3  8  55 55 55 01 00 00 00 00 
   435)     50792.6  Rx         0545  8  20 02 44 A0 99 97 D9 59 
   436)     50793.5  Rx         0119  4  00 00 00 00 
   437)     50793.7  Rx         0132  6  28 96 0D 00 53 40 
   438)     50794.5  Rx         02E1  8  46 80 02 00 10 FD CA 69 
   439)     50794.7  Rx         0261  8  31 00 F3 FF 89 49 DA FD 
   440)     50795.0  Rx         02C1  8  02 19 06 00 00 D0 92 09 
   441)     50795.2  Rx         0122  8  01 00 00 00 00 3F 00 00 
   442)     50795.5  Rx         0227  8  EC 03 19 00 41 00 00 81 
   443)     50795.7  Rx         0247  8  31 0F FF 0F 00 46 02 00 
   444)     50796.0  Rx         0677  8  03 00 00 00 00 00 00 00 
   445)     50796.3  Rx         0243  8  03 00 00 80 0F 4D 08 00 
   446)     50796.6  Rx         02A8  8  02 10 00 00 06 80 D0 12 
   447)     50798.3  Rx         0553  8  00 00 00 00 00 00 10 68 
   448)     50798.6  Rx         0287  8  38 39 37 38 01 03 00 00 
   449)     50799.4  Rx         025B  8  D3 C0 02 05 CA 8C F0 3B 
   450)     50800.5  Rx         02F1  8  2B 74 00 00 00 00 00 00 
   451)     50800.8  Rx         0221  8  40 41 05 15 00 50 11 1F 
   452)     50801.0  Rx         0439  8  00 00 00 00 00 18 02 01 
   453)     50801.2  Rx         0129  8  E1 27 B0 60 FF 1F FF 3F 
   454)     50801.5  Rx         0272  8  06 00 02 C1 07 C0 1E 20 
   455)     50801.6  Rx         0249  4  D3 03 00 00 
   456)     50801.9  Rx         078A  8  01 00 05 00 9D 0D 0A 00 
   457)     50802.1  Rx         02E8  8  02 10 00 00 06 80 C0 42 
   458)     50803.6  Rx         0132  6  28 96 0D 00 50 40 
   459)     50803.8  Rx         0401  8  04 2A C5 9C BC 9C A2 9C 
   460)     50804.2  Rx         0682  8  00 00 00 40 04 04 10 15 
   461)     50804.4  Rx         0383  8  A9 18 20 00 3B B0 C0 05 
   462)     50804.6  Rx         03AE  8  AB 40 00 08 00 00 90 84 
   463)     50806.3  Rx         0263  8  03 00 00 00 00 00 00 00 
   464)     50806.6  Rx         0428  6  00 00 00 10 00 00 
   465)     50807.2  Rx         0282  8  0C 39 12 09 D8 C4 02 24 
   466)     50808.0  Rx         039D  5  3E 55 21 28 00 
   467)     50808.5  Rx         02E1  8  10 21 04 00 10 00 00 04 
   468)     50809.5  Rx         0201  8  02 00 00 00 00 00 00 00 
   469)     50809.8  Rx         0719  8  15 FF C9 FF FF 00 00 00 
   470)     50810.3  Rx         0423  7  00 00 10 00 00 00 00 
   471)     50810.5  Rx         0261  8  82 29 2D 02 80 5C E1 C5 
   472)     50810.8  Rx         0709  8  07 00 00 00 00 00 00 00 
   473)     50811.0  Rx         0129  8  5F 28 B0 60 00 20 FF 3F 
   474)     50811.5  Rx         03F5  8  00 C8 C8 39 80 0C 00 00 
   475)     50811.8  Rx         0448  6  00 00 10 10 00 00 
   476)     50812.5  Rx         0381  8  0A 00 00 00 00 00 00 00 
   477)     50813.1  Rx         01F8  4  00 00 00 00 
   478)     50813.6  Rx         0132  6  28 96 0D 00 50 40 
   479)     50813.9  Rx         02A3  8  01 00 00 00 00 20 00 00 
   480)     50814.1  Rx         023E  8  F4 01 3A A6 FA FC 1F 2A 
   481)     50814.3  Rx         022B  8  FF FF FF FF FF FF FF FF 
   482)     50814.6  Rx         02C1  8  B3 1A 98 00 00 00 00 00 
   483)     50815.2  Rx         03E2  7  02 00 00 00 00 C0 00 
   484)     50815.4  Rx         03C2  8  00 55 55 55 00 00 69 05 
   485)     50816.3  Rx         02C3  8  55 03 A8 06 00 00 12 A5 
   486)     50816.6  Rx         0243  8  04 FC D3 F1 8D 7C FF FF 
   487)     50816.8  Rx         0379  8  00 00 0A 48 33 3F 21 00 
   488)     50817.1  Rx         03A1  8  C3 FF FF 3F 3E 00 30 2E 
   489)     50817.3  Rx         0234  8  21 20 02 F3 E8 03 E0 9C 
   490)     50818.5  Rx         061D  8  02 00 36 4A 16 45 00 00 
   491)     50818.7  Rx         0238  8  20 27 48 C3 1F 00 66 11 
   492)     50819.2  Rx         0289  8  00 00 00 00 00 00 80 12 
   493)     50820.2  Rx         031C  8  18 04 72 78 FE FF 07 00 
   494)     50821.0  Rx         0129  8  0A 29 B0 60 00 20 FF 3F 
   495)     50822.2  Rx         03A2  8  60 E5 F2 B9 7C 8A C2 6F 
   496)     50822.4  Rx         02D1  2  FF 01 
   497)     50822.6  Rx         02E1  8  29 2A 00 FF 0F 00 00 00 
   498)     50823.5  Rx         0139  1  00 
   499)     50823.6  Rx         0132  6  28 96 0D 00 50 40 
   500)     50823.9  Rx         0401  8  05 2A C0 9C BE 9C C2 9C 
   501)     50824.3  Rx         02E3  7  02 00 00 4D 02 0B 00 
   502)     50824.6  Rx         031D  8  00 00 00 00 00 00 00 00 
   503)     50825.1  Rx         02D7  5  00 48 05 00 80 
   504)     50825.5  Rx         0545  8  01 00 00 00 00 10 E0 3B 
   505)     50826.4  Rx         0263  8  04 00 00 00 B0 20 00 00 
   506)     50826.6  Rx         0261  8  5B 4C 0A 00 00 40 F5 14 
   507)     50826.8  Rx         02B3  8  CE 2B 5E 01 00 61 64 00 
   508)     50827.1  Rx         045A  8  FD 07 00 7F 02 00 4F 00 
   509)     50828.2  Rx         0214  8  00 0F 00 A0 00 00 00 00 
   510)     50830.6  Rx         037A  8  C0 00 00 00 00 00 00 00 
   511)     50831.0  Rx         0129  8  D5 2A B0 60 00 20 FF 3F 
   512)     50831.3  Rx         04E2  8  06 00 00 00 00 00 00 00 
   513)     50832.2  Rx         0505  8  1F AE 77 8D 06 43 0C 00 
   514)     50832.4  Rx         0225  4  15 45 D2 00 
   515)     50832.6  Rx         0441  8  72 01 B6 C3 58 00 0D BA 
   516)     50833.5  Rx         0421  7  00 14 00 00 00 D0 48 
   517)     50833.7  Rx         0132  6  28 96 0D 00 54 40 
   518)     50834.5  Rx         0301  8  21 00 00 00 FF FF FF FF 
   519)     50834.8  Rx         0201  8  03 00 00 00 00 00 00 00 
   520)     50835.1  Rx         02C1  8  04 00 00 00 00 00 00 00 
   521)     50835.3  Rx         0677  8  04 00 00 00 00 00 00 00 
   522)     50835.5  Rx         0718  7  01 00 00 00 00 00 00 
   523)     50835.7  Rx         022A  4  00 00 1D 18 
   524)     50836.3  Rx         0243  8  00 FC CF 0C 9A 44 0D 49 
   525)     50836.6  Rx         02E1  8  02 00 00 00 FF 00 02 00 
   526)     50837.2  Rx         0262  8  0B 00 D1 FA 00 F0 92 12 
   527)     50837.6  Rx         0359  8  10 00 00 00 00 00 00 00 
   528)     50838.3  Rx         0283  6  01 00 00 00 41 00 
   529)     50838.5  Rx         0666  4  00 00 A0 00 
   530)     50838.7  Rx         055A  8  02 00 00 00 00 00 00 00 
   531)     50838.9  Rx         0405  8  12 46 30 30 31 30 39 30 
   532)     50840.2  Rx         01FB  8  05 02 00 00 00 00 00 00 
   533)     50841.0  Rx         0129  8  24 2B B0 60 00 20 FF 3F 
   534)     50842.5  Rx         0261  8  CC 00 78 4B 00 40 04 01 
   535)     50843.2  Rx         0552  8  00 00 00 00 00 00 20 77 
   536)     50843.6  Rx         0132  6  28 96 0D 00 53 40 
   537)     50843.8  Rx         0372  8  02 2D 41 3C 90 01 38 57 
   538)     50844.0  Rx         0401  8  06 2A C2 9C B5 9C BC 9C 
   539)     50844.3  Rx         03C0  8  04 00 00 00 00 00 00 00 
   540)     50844.6  Rx         038A  8  03 00 00 00 00 00 00 00 
   541)     50844.8  Rx         03AE  8  AB 40 00 08 00 00 A0 94 
   542)     50845.7  Rx         020A  6  F6 15 09 82 18 11 
   543)     50846.3  Rx         0263  8  E0 43 F6 6A A6 4F 5F 1F 
   544)     50848.0  Rx         039D  5  3F 56 21 28 00 
   545)     50849.1  Rx         0422  6  F2 06 04 00 00 00 
   546)     50850.3  Rx         0103  8  22 B3 88 04 C2 12 21 32 
   547)     50850.5  Rx         0221  8  41 01 55 51 01 02 20 2E 
   548)     50850.8  Rx         02E1  8  03 6D 66 02 1B 99 00 00 
   549)     50851.0  Rx         0129  8  44 2C B0 60 00 20 FF 3F 
   550)     50851.3  Rx         0381  8  0B 00 00 00 00 00 00 00 
   551)     50851.4  Rx         0229  3  4C 08 00 
   552)     50851.7  Rx         039A  8  1C 1F F7 96 FF FD FD 61 
   553)     50851.8  Rx         0249  4  D3 04 00 00 
   554)     50852.1  Rx         054F  8  00 00 00 00 00 00 00 00 
   555)     50853.6  Rx         0132  6  28 96 0D 00 53 40 
   556)     50853.9  Rx         023E  8  F4 01 3A A6 FA FC 2F 3A 
   557)     50854.5  Rx         02C1  8  50 44 FE 00 50 8E 02 00 
   558)     50854.7  Rx         0419  1  00 
   559)     50855.2  Rx         02C2  8  55 5B A9 06 00 00 12 A5 
   560)     50855.5  Rx         03A2  8  01 00 10 00 00 00 00 00 
   561)     50855.9  Rx         02D2  8  54 2F C0 4E 0B 07 6F 01 
   562)     50856.1  Rx         0212  8  59 5C 02 40 83 05 30 43 
   563)     50856.3  Rx         0252  8  E4 1B 52 06 8C 28 1D 00 
   564)     50856.6  Rx         0123  8  00 00 12 12 D2 00 00 00 
   565)     50856.7  Rx         020E  2  14 04 
   566)     50856.9  Rx         0243  8  01 FC 40 47 3E 00 63 63 
   567)     50857.2  Rx         0281  6  1A 00 FF 1F 00 01 
   568)     50857.4  Rx         0292  8  FB B2 BB 70 C2 01 E6 00 
   569)     50857.6  Rx         02A2  7  00 00 00 00 00 00 00 
   570)     50857.8  Rx         02F2  2  62 02 
   571)     50858.0  Rx         0312  8  00 A5 E5 06 5A A5 25 14 
   572)     50858.2  Rx         0392  8  00 0B 00 00 00 00 00 00 
   573)     50858.4  Rx         0712  8  00 2A CE 0B 8D 0B 50 0C 
   574)     50858.7  Rx         0261  8  05 22 F1 C7 9A 42 10 F9 
   575)     50858.9  Rx         0545  8  02 00 03 00 00 00 F0 3F 
   576)     50859.2  Rx         07AA  8  86 00 50 B5 D0 1E A1 02 
   577)     50859.4  Rx         02C4  8  49 D9 FD 2E AC D4 A5 88 
   578)     50859.6  Rx         0201  8  00 30 4F 19 00 E4 FF 00 
   579)     50859.9  Rx         0204  8  66 02 0E 0E 00 78 00 01 
   580)     50860.1  Rx         0264  6  D6 0D 9E 0E 78 00 
   581)     50860.4  Rx         0224  8  04 08 00 A0 E3 00 10 08 
   582)     50860.5  Rx         02B4  6  3D 05 0F 0F FB 00 
   583)     50860.7  Rx         0409  1  00 
   584)     50860.9  Rx         0719  8  16 00 00 00 00 00 00 00 
   585)     50861.1  Rx         0129  8  56 2D B0 60 00 20 FF 3F 
   586)     50861.4  Rx         021D  8  AE 18 49 0C 8C 00 30 05 
   587)     50861.6  Rx         075D  8  05 00 00 00 00 00 00 00 
   588)     50861.9  Rx         025D  8  70 91 29 AC 04 F5 00 00 
   589)     50862.2  Rx         027D  8  00 00 00 00 00 00 00 00 
   590)     50862.5  Rx         03A3  8  12 D0 00 00 98 0B FC 01 
   591)     50862.6  Rx         029D  4  00 00 00 20 
   592)     50862.7  Rx         041D  1  34 
   593)     50862.9  Rx         02BD  4  00 00 00 00 
   594)     50863.1  Rx         043D  6  25 18 FF 1F FF 02 
   595)     50863.3  Rx         049D  6  00 00 00 00 00 40 
   596)     50863.8  Rx         0132  6  28 96 0D 00 4C 40 
   597)     50864.1  Rx         0401  8  07 2A B6 9C A7 9C B6 9C 
   598)     50864.3  Rx         022B  8  FF FF FF FF FF FF FF FF 
   599)     50864.5  Rx         0400  7  00 E0 FB BE EF FB 00 
   600)     50864.8  Rx         02E1  8  FC 1B 89 F9 96 80 09 00 
   601)     50865.2  Rx         03A8  8  02 80 E9 F7 FF FF FF 43 
   602)     50865.5  Rx         03C2  8  29 55 00 00 00 00 00 00 
   603)     50865.7  Rx         02F9  8  D0 FB 07 00 FF FF FF FF 
   604)     50866.3  Rx         0263  8  D9 4B EE 62 AE 4F 5F 1F 
   605)     50866.5  Rx         03A1  8  88 42 0C 8A 01 14 42 77 
   606)     50866.8  Rx         03C8  8  05 00 00 00 00 00 00 00 
   607)     50867.3  Rx         0234  8  2D 19 03 00 37 00 F4 0F 
   608)     50867.7  Rx         0453  4  00 00 00 00 
   609)     50867.8  Rx         01BB  1  02 
   610)     50868.0  Rx         0284  8  30 00 00 00 40 08 20 1E 
   611)     50868.2  Rx         0390  2  19 06 
   612)     50868.4  Rx         0393  8  06 00 00 E1 07 C0 1E 20 
   613)     50871.0  Rx         0129  8  89 2E B0 60 00 20 FF 3F 
   614)     50871.2  Rx         01FA  3  1A C0 01 
   615)     50871.5  Rx         0420  7  28 01 40 4B 00 80 05 
   616)     50871.9  Rx         03E8  8  04 00 00 00 00 00 00 00 
   617)     50872.6  Rx         03F9  8  05 00 00 00 00 00 00 00 
   618)     50873.3  Rx         0207  8  00 02 00 00 00 00 00 00 
   619)     50873.6  Rx         0132  6  28 96 0D 00 55 40 
   620)     50874.3  Rx         020C  8  3E 78 39 1E 1C 01 30 0E 
   621)     50874.6  Rx         0261  8  00 10 0C 00 FF 4F 20 B8 
   622)     50874.8  Rx         02C1  8  21 2B 0D 0A 02 00 00 00 
   623)     50875.0  Rx         0677  8  00 00 00 00 00 00 00 00 
   624)     50876.3  Rx         0243  8  02 FC 1B 0F 05 63 00 00 
   625)     50876.6  Rx         045A  8  44 46 47 C6 5F 23 47 40 
   626)     50876.8  Rx         0788  8  C4 CC B1 63 00 00 84 00 
   627)     50877.1  Rx         0242  3  10 55 84 
   628)     50878.5  Rx         0340  8  0A 00 00 00 00 00 00 00 
   629)     50878.8  Rx         02E1  8  05 00 00 00 00 30 26 00 
   630)     50879.7  Rx         0339  8  01 41 02 00 00 03 40 0C 
   631)     50880.3  Rx         04E3  8  06 00 00 00 00 00 00 00 
   632)     50881.0  Rx         0129  8  78 2F B0 60 00 20 FF 3F 
   633)     50881.9  Rx         07A8  8  02 40 C2 F7 4E 0F 00 00 
   634)     50882.5  Rx         0441  8  3A 85 89 00 32 00 10 F3 
   635)     50883.2  Rx         0360  8  03 00 00 00 00 00 00 00 
   636)     50883.6  Rx         0132  6  28 96 0D 00 30 40 
   637)     50883.8  Rx         0401  8  08 2A C3 9C BD 9C BC 9C 
   638)     50884.4  Rx         03AE  8  AB 40 00 08 00 00 B0 A4 
   639)     50884.6  Rx         0201  8  59 38 98 00 01 00 00 00 
   640)     50886.3  Rx         0343  8  00 91 3C 5E 98 00 00 00 
   641)     50886.6  Rx         01F9  8  00 00 00 00 00 00 00 00 
   642)     50886.8  Rx         0263  8  02 00 A0 47 0F 3C 3C 41 
   643)     50887.0  Rx         0288  8  03 16 00 8F 80 00 71 23 
   644)     50887.3  Rx         02B3  8  AF 07 29 52 E1 0E 80 04 
   645)     50887.4  Rx         0113  3  01 97 01 
   646)     50887.5  Rx         07F4  1  01 
   647)     50887.8  Rx         07FF  8  02 66 12 04 00 51 86 82 
   648)     50888.0  Rx         0318  8  1A 03 0A 16 1E 2E 2F D3 
   649)     50888.3  Rx         03A2  8  E2 A7 FF 7F 00 00 00 00 
   650)     50888.4  Rx         039D  5  40 57 21 28 00 
   651)     50888.7  Rx         0381  8  0C 00 00 00 00 00 00 00 
   652)     50888.9  Rx         0458  7  00 00 20 00 00 00 00 
   653)     50889.2  Rx         0102  8  22 B3 48 02 B6 42 A1 09 
   654)     50889.5  Rx         0241  7  34 32 CC 0E 8F 55 00 
   655)     50890.2  Rx         01FB  8  00 00 00 00 00 00 00 00 
   656)     50890.5  Rx         0261  8  31 00 01 00 89 49 3A 6C 
   657)     50891.0  Rx         0129  8  9D 20 B0 60 00 20 FF 3F 
   658)     50891.5  Rx         0545  8  70 02 3F 90 99 96 09 C3 
   659)     50891.9  Rx         0228  8  03 16 00 8F 80 00 61 B3 
   660)     50892.3  Rx         03C3  8  00 00 00 00 00 51 00 00 
   661)     50892.6  Rx         02E1  8  46 80 02 00 10 FD CA 69 
   662)     50892.7  Rx         03E3  4  00 00 00 00 
   663)     50893.5  Rx         0119  4  00 00 00 00 
   664)     50893.7  Rx         0132  6  28 96 0C 00 2E 40 
   665)     50894.1  Rx         023E  8  F4 01 3A A6 FA FC 3F 4A 
   666)     50894.5  Rx         02C1  8  02 19 06 00 00 D0 92 09 
   667)     50895.1  Rx         0247  8  2F 0F FF 0F 00 46 02 00 
   668)     50895.3  Rx         0122  8  00 00 12 12 D2 00 00 00 
   669)     50895.6  Rx         0227  8  E6 03 19 00 41 00 00 81 
   670)     50896.3  Rx         0243  8  03 00 00 80 0F 4D 08 00 
   671)     50896.6  Rx         02A8  8  02 10 00 00 06 80 E0 22 
   672)     50897.8  Rx         0363  8  0A 01 01 00 00 00 48 00 
   673)     50898.3  Rx         0553  8  00 00 00 00 00 00 20 78 
   674)     50899.1  Rx         0287  8  38 39 37 38 01 03 05 00 
   675)     50899.4  Rx         025B  8  D3 C0 02 05 CA 8C 00 4B 
   676)     50900.5  Rx         02F1  8  0C 15 50 18 01 86 32 34 
   677)     50900.8  Rx         0221  8  40 41 05 15 00 50 31 3F 
   678)     50901.0  Rx         0439  8  00 00 00 00 00 18 02 01 
   679)     50901.2  Rx         0129  8  8A 21 B0 60 00 20 FF 3F 
   680)     50901.5  Rx         0272  8  09 80 63 00 00 00 00 00 
   681)     50901.7  Rx         0249  4  83 05 00 00 
   682)     50901.9  Rx         078A  8  01 00 06 00 02 00 00 00 
   683)     50902.1  Rx         02E8  8  02 10 00 00 06 80 D0 52 
   684)     50903.4  Rx         0682  8  00 00 00 40 04 04 20 25 
   685)     50903.6  Rx         0132  6  28 96 0A 00 3D 40 
   686)     50903.8  Rx         0372  8  03 00 09 50 00 01 00 00 
   687)     50904.1  Rx         0401  8  09 2A BC 9C BD 9C BC 9C 
   688)     50904.3  Rx         0383  8  A9 18 20 00 3B B0 C0 05 
   689)     50906.4  Rx         0263  8  03 00 00 00 00 00 00 00 
   690)     50906.6  Rx         02E1  8  10 21 04 00 10 00 00 04 
   691)     50906.8  Rx         0261  8  82 29 2D 02 80 5C 41 25 
   692)     50907.0  Rx         0428  6  00 00 00 10 00 00 
   693)     50907.3  Rx         0282  8  0C 39 C2 08 D8 C4 02 24 
   694)     50909.5  Rx         0201  8  02 00 00 00 00 00 00 00 
   695)     50909.8  Rx         03DB  8  0A 21 1D 1D 1D 00 00 00 
   696)     50910.0  Rx         043B  8  01 7F 00 FF 00 00 00 00 
   697)     50910.2  Rx         0719  8  17 00 00 00 00 00 00 00 
   698)     50910.5  Rx         0423  7  00 00 10 00 00 00 00 
   699)     50911.0  Rx         0129  8  C3 22 B0 60 00 20 FF 3F 
   700)     50911.6  Rx         03F5  8  00 C8 C8 39 80 0C 00 00 
   701)     50911.9  Rx         0448  6  00 00 10 10 00 00 
   702)     50913.1  Rx         01F8  4  00 00 00 00 
   703)     50913.6  Rx         0132  6  28 96 09 00 50 40 
   704)     50913.8  Rx         02A3  8  01 00 04 00 00 20 00 00 
   705)     50914.2  Rx         022B  8  FF FF FF FF FF FF FF FF 
   706)     50914.6  Rx         02C1  8  B3 1A 98 00 00 00 00 00 
   707)     50914.8  Rx         0677  8  01 00 00 00 00 00 00 00 
   708)     50915.2  Rx         040A  8  01 10 00 00 00 00 90 AF 
   709)     50915.4  Rx         03C2  8  00 55 55 55 00 00 69 05 
   710)     50916.3  Rx         02C3  8  00 00 00 4C 01 00 80 CB 
   711)     50916.6  Rx         0243  8  04 FC C3 F1 8D 7C FF FF 
   712)     50916.8  Rx         0379  8  01 00 0A 48 33 3F 21 00 
   713)     50917.1  Rx         03A1  8  C3 FF FF 33 3E 00 50 42 
   714)     50917.3  Rx         0234  8  21 20 02 F4 E8 03 00 BD 
   715)     50917.8  Rx         0285  8  01 00 B1 01 09 00 38 00 
   716)     50918.0  Rx         0286  5  EF F5 78 E9 B7 
   717)     50919.2  Rx         0289  8  00 00 00 00 00 00 80 12 
   718)     50920.2  Rx         031C  8  18 04 72 78 FE FF 07 00 
   719)     50920.5  Rx         02E1  8  29 2A 00 FF 0F 00 00 00 
   720)     50921.0  Rx         0129  8  79 23 B0 60 01 20 FF 3F 
   721)     50921.2  Rx         03A2  8  A0 45 73 C6 7C 8A C2 6F 
   722)     50922.4  Rx         02D1  2  FF 01 
   723)     50922.6  Rx         0261  8  5B 4C 0A 00 00 40 55 74 
   724)     50923.1  Rx         0307  8  00 00 00 00 00 00 00 3B 
   725)     50923.4  Rx         0139  1  00 
   726)     50923.6  Rx         0132  6  28 96 08 00 51 40 
   727)     50923.9  Rx         0320  8  01 01 00 00 00 00 00 00 
   728)     50924.1  Rx         0401  8  0A 2A BC 9C B9 9C BC 9C 
   729)     50924.3  Rx         0303  8  21 00 00 00 FF FF FF FF 
   730)     50924.6  Rx         03AE  8  AB 40 00 08 00 00 C0 B4 
   731)     50924.8  Rx         031D  8  00 00 00 00 00 00 00 00 
   732)     50925.1  Rx         0545  8  01 00 00 00 00 10 10 6B 
   733)     50925.2  Rx         02D7  5  00 48 05 00 80 
   734)     50926.4  Rx         0263  8  04 00 00 00 B0 20 00 00 
   735)     50926.6  Rx         0381  8  0D 00 00 00 00 00 00 00 
   736)     50926.9  Rx         045A  8  FD 07 00 7F 02 00 4F 00 
   737)     50928.2  Rx         0214  8  00 0F 00 A0 00 00 00 00 
   738)     50928.4  Rx         039D  5  41 58 21 28 00 
   739)     50930.5  Rx         037A  8  C1 00 00 00 00 00 00 00 
   740)     50931.0  Rx         0129  8  52 24 B0 60 00 20 FF 3F 
   741)     50931.3  Rx         04E2  8  00 04 00 00 00 00 28 00 
   742)     50932.2  Rx         0505  8  20 24 E5 C5 F4 04 00 00 
   743)     50932.4  Rx         0225  4  15 45 D2 00 
   744)     50932.6  Rx         0441  8  72 01 B6 C3 58 00 15 C2 
   745)     50933.5  Rx         0421  7  00 14 00 00 00 D0 48 
   746)     50933.7  Rx         0132  6  28 96 08 00 55 40 
   747)     50934.0  Rx         023E  8  F4 01 3A A6 FA FC 4F 5A 
   748)     50934.5  Rx         03F6  8  00 00 00 00 36 00 31 31 
   749)     50934.8  Rx         0201  8  03 00 00 00 00 00 00 00 
   750)     50935.0  Rx         02BF  7  00 00 00 00 00 00 00 
   751)     50935.3  Rx         02C1  8  04 00 00 00 00 00 00 00 
   752)     50935.5  Rx         02E1  8  02 00 00 00 FF 00 02 00 
   753)     50935.7  Rx         0443  6  71 06 FF 03 00 00 
   754)     50936.0  Rx         07AA  8  07 FE FF FD FF FC FF 00 
   755)     50936.1  Rx         022A  4  00 00 1D 18 
   756)     50936.4  Rx         0243  8  00 FC CF 0C 9A 44 0D 49 
   757)     50937.2  Rx         0262  8  0B 00 D1 FA 00 F0 92 12 
   758)     50937.5  Rx         0359  8  11 A5 49 A6 71 A9 7B 91 
   759)     50938.3  Rx         0283  6  01 00 00 00 41 00 
   760)     50938.5  Rx         0261  8  CC 00 78 4B 00 40 64 61 
   761)     50940.2  Rx         01FB  8  05 02 00 00 00 00 00 00 
   762)     50941.0  Rx         0129  8  2C 25 B0 60 FF 1F FF 3F 
   763)     50943.2  Rx         0552  8  00 00 00 00 00 00 30 87 
   764)     50943.6  Rx         0132  6  28 96 09 00 55 40 
   765)     50943.8  Rx         0401  8  0B 2A BA 9C A3 9C A0 9C 
   766)     50944.3  Rx         03C0  8  05 00 00 00 00 00 00 00 
   767)     50944.6  Rx         038A  8  00 00 00 00 00 00 00 00 
   768)     50946.3  Rx         0263  8  E0 43 F6 6A A6 4F 5F 1F 
   769)     50946.6  Rx         02B3  8  10 00 00 00 00 00 00 00 
   770)     50948.5  Rx         02E1  8  03 6D 66 02 1B 99 00 00 
   771)     50949.1  Rx         0422  6  F2 06 04 00 00 00 
   772)     50950.3  Rx         0103  8  22 B3 88 04 C2 12 21 32 
   773)     50950.5  Rx         0221  8  41 01 55 51 01 02 40 4E 
   774)     50951.0  Rx         0129  8  9F 26 B0 60 00 20 FF 3F 
   775)     50951.2  Rx         0229  3  A5 09 00 
   776)     50951.4  Rx         0249  4  4C 06 00 00 
   777)     50951.6  Rx         054F  8  00 00 00 00 00 00 00 00 
   778)     50951.9  Rx         039A  8  FD FD FD FD FD 01 00 02 
   779)     50953.6  Rx         0132  6  28 96 09 00 4F 40 
   780)     50954.2  Rx         03A2  8  01 00 10 00 00 00 00 00 
   781)     50954.3  Rx         0419  1  00 
   782)     50954.6  Rx         0261  8  05 22 F1 C7 9A 42 70 59 
   783)     50954.8  Rx         02C1  8  50 44 FE 00 50 8E 02 00 
   784)     50955.1  Rx         0677  8  02 00 00 00 00 00 00 00 
   785)     50955.3  Rx         02C2  8  20 40 C0 4B 01 00 40 CB 
   786)     50955.5  Rx         06C8  8  01 00 00 00 00 00 00 00 
   787)     50955.9  Rx         02D2  8  55 2F C0 4E 0B 07 6F 01 
   788)     50956.2  Rx         0212  8  59 5C 02 40 83 05 30 43 
   789)     50956.4  Rx         0123  8  01 00 00 00 00 3F 00 00 
   790)     50956.6  Rx         020E  2  15 05 
   791)     50956.8  Rx         0243  8  01 FC 40 47 3E 00 63 63 
   792)     50957.0  Rx         0252  8  E4 1B 52 06 8C 20 1D 00 
   793)     50957.2  Rx         0281  6  1B 00 FF 1F 00 01 
   794)     50957.5  Rx         0292  8  FB B2 BB 70 C2 01 E6 00 
   795)     50957.7  Rx         02A2  7  00 00 00 00 00 00 00 
   796)     50957.8  Rx         02F2  2  62 02 
   797)     50958.1  Rx         0545  8  02 00 03 00 00 00 20 6F 
   798)     50958.3  Rx         0712  8  01 2A 06 0C FF 0B 52 0C 
   799)     50958.5  Rx         031A  8  03 00 00 00 00 00 90 B0 
   800)     50959.3  Rx         02C4  8  2A 80 00 00 C7 90 06 00 
   801)     50959.5  Rx         0204  8  66 02 0E 0E 00 78 00 01 
   802)     50959.8  Rx         0201  8  00 32 50 1A 00 E4 FF 00 
   803)     50960.0  Rx         0224  8  04 08 00 60 E3 00 10 08 
   804)     50960.2  Rx         0264  6  D5 0D 9E 0E 78 00 
   805)     50960.4  Rx         02B4  6  3B 05 0B 0F 00 01 
   806)     50960.6  Rx         0387  8  67 6A 64 FF FF FF 15 40 
   807)     50960.7  Rx         0409  1  00 
   808)     50961.0  Rx         0719  8  20 01 0C 14 14 27 0D 00 
   809)     50961.2  Rx         0129  8  88 27 B0 60 00 20 FF 3F 
   810)     50961.4  Rx         021D  8  AE 18 49 0C 8C 00 30 05 
   811)     50961.6  Rx         041D  1  34 
   812)     50961.8  Rx         025D  8  70 91 29 AC 04 F5 00 00 
   813)     50962.0  Rx         043D  6  25 18 FF 1F FF 02 
   814)     50962.3  Rx         03A3  8  14 D0 00 00 98 0B FC 01 
   815)     50962.6  Rx         027D  8  00 00 00 00 00 00 00 00 
   816)     50962.8  Rx         029D  4  00 00 00 20 
   817)     50963.0  Rx         02E1  8  FC 1B 88 F9 96 80 09 00 
   818)     50963.1  Rx         02BD  4  00 00 00 00 
   819)     50963.3  Rx         049D  6  00 00 00 00 00 40 
   820)     50963.8  Rx         0132  6  28 96 0A 00 4F 40 
   821)     50964.0  Rx         0372  8  04 00 44 A4 00 00 90 11 
   822)     50964.3  Rx         022B  8  FF FF FF FF FF FF FF FF 
   823)     50964.5  Rx         0400  7  00 E0 FB BE EF FB 00 
   824)     50964.8  Rx         0381  8  0E 00 00 00 00 E0 FF 00 
   825)     50965.0  Rx         0401  8  0C 2A A7 9C BF 9B AD 9C 
   826)     50965.2  Rx         0302  8  21 00 00 00 00 00 00 00 
   827)     50965.5  Rx         02E2  8  01 00 00 5F 02 0B 00 00 
   828)     50965.7  Rx         02F9  8  D0 FB 07 08 EF F5 78 E9 
   829)     50966.0  Rx         03AE  8  AB 40 00 08 00 00 D0 C4 
   830)     50966.2  Rx         03C2  8  29 55 00 00 00 00 00 00 
   831)     50966.4  Rx         0263  8  D9 4B EE 62 AE 4F 5F 1F 
   832)     50966.6  Rx         03A1  8  88 42 0C 8A 01 14 62 97 
   833)     50966.9  Rx         03C8  8  06 00 00 00 00 00 00 00 
   834)     50967.1  Rx         0234  8  2C 19 03 00 37 00 14 2E 
   835)     50968.1  Rx         039D  5  42 59 21 28 00 
   836)     50968.3  Rx         0393  8  09 80 63 00 00 00 00 00 
   837)     50968.6  Rx         0313  8  02 64 64 05 00 00 90 75 
   838)     50968.9  Rx         0285  8  02 D2 00 00 00 00 FB 00 
   839)     50970.5  Rx         0261  8  00 10 0C 00 FF 4F 80 18 
   840)     50971.0  Rx         0129  8  5F 28 B0 60 00 20 FF 3F 
   841)     50971.2  Rx         01FA  3  1A C0 01 
   842)     50971.5  Rx         0420  7  28 01 40 4B 00 00 06 
   843)     50971.9  Rx         03E8  8  05 00 00 00 00 00 00 00 
   844)     50972.6  Rx         03F9  8  06 00 00 00 00 00 00 00 
   845)     50972.9  Rx         0207  8  00 02 00 00 00 00 00 00 
   846)     50973.6  Rx         0132  6  28 96 0A 00 54 40 
   847)     50973.9  Rx         023E  8  F4 01 3A A6 FA FC 5F 6A 
   848)     50974.3  Rx         020C  8  3F 78 39 1E 1C 01 30 0E 
   849)     50974.5  Rx         02C1  8  21 2B 0D 0A 02 00 00 00 
   850)     50976.3  Rx         0243  8  02 FC 1B 0F 05 63 00 00 
   851)     50976.6  Rx         02E1  8  05 00 00 00 00 30 26 00 
   852)     50976.8  Rx         045A  8  44 46 47 C6 5F 23 47 40 
   853)     50977.0  Rx         0788  8  01 00 00 00 FF A1 E8 12 
   854)     50977.2  Rx         0242  3  10 55 84 
   855)     50978.5  Rx         0340  8  0B 00 00 00 00 00 00 00 
   856)     50979.6  Rx         0339  8  01 41 02 00 00 03 40 0C 
   857)     50980.3  Rx         04E3  8  00 A9 02 00 00 00 28 00 
   858)     50981.0  Rx         0129  8  0A 29 B0 60 00 20 FF 3F 
   859)     50981.9  Rx         07A8  8  C0 CC B1 63 00 00 82 00 
   860)     50982.5  Rx         0441  8  3A 85 89 00 32 00 18 FB 
   861)     50983.2  Rx         0360  8  04 00 00 00 00 00 00 00 
   862)     50983.6  Rx         0132  6  28 96 0A 00 53 40 
   863)     50983.8  Rx         0401  8  0D 2A 9E 9C 9C 9C 9B 9C 
   864)     50984.5  Rx         0201  8  59 38 98 00 01 00 00 00 
   865)     50986.3  Rx         0343  8  00 91 3C 8E 97 00 00 00 
   866)     50986.6  Rx         0261  8  31 00 18 00 89 49 9A E3 
   867)     50986.8  Rx         01F9  8  00 00 00 00 00 00 00 00 
   868)     50987.0  Rx         0263  8  02 00 A0 47 0F 3C 3C 41 
   869)     50987.3  Rx         0288  8  03 16 00 8F 80 00 81 33 
   870)     50987.4  Rx         0113  3  01 97 01 
   871)     50987.7  Rx         03A2  8  C2 A7 FF 7F 00 00 00 00 
   872)     50987.8  Rx         07F4  1  01 
   873)     50988.0  Rx         07FF  8  03 00 08 08 01 01 1F 00 
   874)     50988.3  Rx         0318  8  1A 03 0A 16 1E 2E 31 D5 
   875)     50988.5  Rx         0458  7  00 00 20 00 00 00 00 
   876)     50989.2  Rx         0102  8  22 B3 48 02 B6 44 A1 09 
   877)     50989.5  Rx         0241  7  36 32 0C 0F 8F 55 00 
   878)     50990.2  Rx         01FB  8  00 00 00 00 00 00 00 00 
   879)     50990.5  Rx         02E1  8  46 80 02 00 10 FD CA 69 
   880)     50990.7  Rx         0545  8  70 02 49 D0 99 99 39 40 
   881)     50991.0  Rx         0129  8  D5 2A B0 60 00 20 FF 3F 
   882)     50991.9  Rx         0228  8  03 16 00 8F 80 00 71 C3 
   883)     50992.4  Rx         03C3  8  55 55 55 01 00 00 00 00 
   884)     50993.5  Rx         0119  4  00 00 00 00 
   885)     50993.7  Rx         0132  6  28 96 0B 00 54 40 
   886)     50994.5  Rx         02C1  8  02 19 06 00 00 D0 92 09 
   887)     50994.8  Rx         0677  8  03 00 00 00 00 00 00 00 
   888)     50995.0  Rx         0227  8  E4 03 19 00 41 00 00 81 
   889)     50995.3  Rx         0122  8  01 00 00 00 00 3F 00 00 
   890)     50995.5  Rx         0247  8  30 0F FF 0F 00 46 02 00 
   891)     50996.3  Rx         0243  8  03 00 00 80 0F 4D 08 00 
   892)     50996.5  Rx         02A8  8  02 10 00 00 06 80 F0 32 
   893)     50997.7  Rx         0287  8  38 39 37 38 01 03 00 00 
   894)     50998.3  Rx         0553  8  00 00 00 00 00 00 30 88 
   895)     50999.4  Rx         025B  8  D3 C0 02 05 CA 8C 10 5B 
   896)     51000.5  Rx         02F1  8  0D C9 9B 40 21 C0 06 00 
   897)     51000.8  Rx         0221  8  40 41 05 15 00 50 51 5F 
   898)     51001.0  Rx         0439  8  00 00 00 00 00 18 02 01 
   899)     51001.2  Rx         0129  8  24 2B B0 60 00 20 FF 3F 
   900)     51001.5  Rx         0272  8  06 00 04 D1 07 C0 1E 20 
   901)     51001.6  Rx         0249  4  5E 07 00 00 
   902)     51001.9  Rx         03AA  8  01 00 00 00 00 00 00 00 
   903)     51002.1  Rx         02E8  8  02 10 00 00 06 80 E0 62 
   904)     51002.3  Rx         077A  8  E1 11 54 5D 14 5E A8 5D 
   905)     51002.6  Rx         0261  8  82 29 2D 02 80 5C A1 85 
   906)     51002.8  Rx         0381  8  EF FF FF CD 03 00 CF 0C 
   907)     51003.1  Rx         078A  8  01 00 00 00 20 13 19 0D 
   908)     51003.3  Rx         0682  8  00 00 00 40 04 04 30 35 
   909)     51003.6  Rx         0132  6  28 96 0B 00 51 40 
   910)     51003.8  Rx         0401  8  0E 2A AD 9C A4 9C B5 9C 
   911)     51004.3  Rx         0383  8  A9 18 20 00 3B B0 C0 05 
   912)     51004.6  Rx         02E1  8  10 21 04 00 10 00 00 04 
   913)     51004.8  Rx         03AE  8  AB 40 00 08 00 00 E0 D4 
   914)     51005.7  Rx         02D3  8  05 01 54 02 0F 14 08 4D 
   915)     51006.4  Rx         0263  8  03 00 00 00 00 00 00 00 
   916)     51006.6  Rx         02B3  8  00 7F 8D 86 7D 00 00 00 
   917)     51006.8  Rx         0428  6  00 00 00 10 00 00 
   918)     51007.2  Rx         0282  8  04 39 12 09 D8 B4 02 24 
   919)     51008.0  Rx         039D  5  43 5A 21 28 00 
   920)     51009.5  Rx         0201  8  02 00 00 00 00 00 00 00 
   921)     51009.8  Rx         0719  8  01 00 00 00 00 00 00 00 
   922)     51010.3  Rx         0423  7  00 00 10 00 00 00 00 
   923)     51011.0  Rx         0129  8  E9 2C B0 60 01 20 FF 3F 
   924)     51011.6  Rx         03F5  8  00 C8 C8 39 80 0C 00 00 
   925)     51011.9  Rx         0448  6  00 00 10 10 00 00 
   926)     51013.1  Rx         01F8  4  00 00 00 00 
   927)     51013.6  Rx         0132  6  28 96 0B 00 4F 40 
   928)     51013.8  Rx         02A3  8  01 00 04 00 00 20 00 00 
   929)     51014.1  Rx         023E  8  F4 01 3A A6 FA FC 6F 7A 
   930)     51014.3  Rx         022B  8  FF FF FF FF FF FF FF FF 
   931)     51014.6  Rx         02C1  8  B3 1A 98 00 00 00 00 00 
   932)     51015.2  Rx         03E2  7  02 00 00 00 00 C0 00 
   933)     51015.4  Rx         03C2  8  00 55 55 55 00 00 69 05 
   934)     51016.1  Rx         07AA  8  08 00 00 00 00 47 00 00 
   935)     51016.4  Rx         0243  8  04 FC C3 F1 8D 7C FF FF 
   936)     51016.6  Rx         02C3  8  55 03 A8 06 00 00 12 A5 
   937)     51016.9  Rx         0379  8  02 00 0A 48 33 3F 21 00 
   938)     51017.1  Rx         0234  8  22 20 02 F4 E8 03 20 DE 
   939)     51017.3  Rx         03A1  8  C3 FF FF 29 3E 00 70 58 
   940)     51018.4  Rx         03DF  8  00 00 00 00 01 D0 02 0B 
   941)     51018.6  Rx         0261  8  5B 4C 0A 00 00 40 B5 D4 
   942)     51018.9  Rx         0293  8  02 2C 55 90 15 14 DF B0 
   943)     51019.1  Rx         02E1  8  29 2A 00 FF 0F 00 00 00 
   944)     51019.3  Rx         0253  8  00 61 4F 3F 64 00 2A 04 
   945)     51019.6  Rx         0289  8  00 00 00 00 00 00 80 12 
   946)     51019.8  Rx         03AE  8  AB 40 00 08 00 00 F1 E5 
   947)     51020.1  Rx         031C  8  18 04 72 78 FE FF 07 00 
   948)     51020.4  Rx         03A2  8  60 A5 72 B6 7C 8A C2 6F 
   949)     51020.6  Rx         0285  8  03 5B A1 61 8A 00 00 00 
   950)     51021.0  Rx         0129  8  3F 2D B0 60 FF 1F FF 3F 
   951)     51022.4  Rx         02D1  2  FF 01 
   952)     51023.5  Rx         0545  8  01 00 00 00 00 10 40 9B 
   953)     51023.7  Rx         0132  6  28 96 0B 00 54 40 
   954)     51023.9  Rx         0139  1  00 
   955)     51024.1  Rx         0372  8  05 49 3B 15 78 05 00 00 
   956)     51024.3  Rx         0401  8  0F 2A B2 9C B6 9C AC 9C 
   957)     51024.5  Rx         02E3  7  03 00 00 3C 02 0B 00 
   958)     51024.8  Rx         031D  8  00 00 00 00 00 00 00 00 
   959)     51025.1  Rx         02D7  5  00 48 05 00 80 
   960)     51026.4  Rx         0263  8  04 00 00 00 B0 20 00 00 
   961)     51026.6  Rx         045A  8  FD 07 00 7F 02 00 4F 00 
   962)     51028.2  Rx         0214  8  00 0F 00 A0 00 00 00 00 
   963)     51030.6  Rx         037A  8  D2 00 00 00 00 00 00 00 
   964)     51031.0  Rx         0129  8  89 2E B0 60 00 20 FF 3F 
   965)     51031.2  Rx         04E2  8  01 E8 06 00 00 00 28 00 
   966)     51032.1  Rx         0505  8  00 03 3D 1B A0 A6 00 00 
   967)     51032.3  Rx         0225  4  15 45 D2 00 
   968)     51032.5  Rx         02E1  8  02 00 00 00 FF 00 02 00 
   969)     51032.8  Rx         0441  8  72 01 B6 C3 58 00 1D CA 
   970)     51033.5  Rx         0421  7  00 14 00 00 00 D0 48 
   971)     51033.7  Rx         0132  6  28 96 0B 00 54 40 
   972)     51034.4  Rx         0724  3  03 00 64 
   973)     51034.7  Rx         0201  8  03 00 00 00 00 00 00 00 
   974)     51034.9  Rx         0261  8  CC 00 78 4B 00 40 C4 C1 
   975)     51035.2  Rx         02C1  8  04 00 00 00 00 00 00 00 
   976)     51035.4  Rx         0677  8  04 00 00 00 00 00 00 00 
   977)     51035.6  Rx         022A  4  00 00 1D 18 
   978)     51035.8  Rx         0718  7  02 00 00 00 00 00 00 
   979)     51036.3  Rx         0243  8  00 FC CF 0C 9A 44 0D 49 
   980)     51037.2  Rx         0262  8  0B 00 D1 FA 00 F0 92 12 
   981)     51037.6  Rx         0359  8  92 3F C6 11 83 47 01 0C 
   982)     51038.3  Rx         0283  6  01 00 00 00 41 00 
   983)     51040.2  Rx         01FB  8  05 02 00 00 00 00 00 00 
   984)     51040.5  Rx         0381  8  10 00 00 00 00 00 00 00 
   985)     51041.0  Rx         0129  8  78 2F B0 60 00 20 FF 3F 
   986)     51043.2  Rx         0552  8  00 00 00 00 00 00 40 97 
   987)     51043.6  Rx         0132  6  28 96 0B 00 53 40 
   988)     51043.8  Rx         0401  8  10 2A B0 9C B9 9C AF 9C 
   989)     51044.3  Rx         03C0  8  16 00 00 00 00 00 00 00 
   990)     51044.6  Rx         038A  8  01 00 00 00 00 00 00 00 
   991)     51046.3  Rx         0263  8  E0 43 F6 6A A6 4F 5F 1F 
   992)     51046.6  Rx         02E1  8  03 6D 66 02 1B 9B 00 00 
   993)     51046.8  Rx         03CC  8  03 11 83 1A 00 38 24 00 
   994)     51048.0  Rx         039D  5  44 5B 21 28 00 
   995)     51049.2  Rx         0422  6  F2 06 04 00 00 00 
   996)     51050.3  Rx         0103  8  22 B3 88 04 C2 14 21 32 
   997)     51050.6  Rx         0221  8  41 01 55 51 01 02 60 6E 
   998)     51050.8  Rx         0261  8  05 22 F1 C7 9A 42 D0 B9 
   999)     51051.0  Rx         0129  8  9D 20 B0 60 00 20 FF 3F 
  1000)     51051.2  Rx         0229  3  F6 0A 00 
  1001)     51051.4  Rx         0249  4  3F 08 00 00 
  1002)     51051.6  Rx         054F  8  00 00 00 00 00 00 00 00 
  1003)     51051.8  Rx         039A  8  1C 1F F3 96 FF FD FD 61 
  1004)     51053.2  Rx         03A2  8  01 00 10 00 00 00 00 00 
  1005)     51053.6  Rx         0132  6  28 96 0B 00 53 40 
  1006)     51053.8  Rx         0752  8  05 4D 5D AE 01 00 F7 00 
  1007)     51054.1  Rx         023E  8  F4 01 3A A6 FA FC 7F 8A 
  1008)     51054.5  Rx         02C1  8  50 44 FE 00 50 8E 02 00 
  1009)     51054.7  Rx         0419  1  00 
  1010)     51055.2  Rx         02C2  8  55 5B A9 06 00 00 12 A5 
  1011)     51055.9  Rx         02D2  8  55 2F C0 4E 0B 07 6F 01 
  1012)     51056.1  Rx         0212  8  59 5C 02 40 83 05 30 43 
  1013)     51056.3  Rx         0252  8  E4 1B 52 06 8C 20 1D 00 
  1014)     51056.5  Rx         0123  8  00 00 12 12 D2 00 00 00 
  1015)     51056.7  Rx         020E  2  16 06 
  1016)     51056.9  Rx         0243  8  01 FC 3F 47 3E 00 63 63 
  1017)     51057.1  Rx         0281  6  1B 00 FF 1F 00 01 
  1018)     51057.3  Rx         0292  8  FB B2 BB 70 C2 01 E6 00 
  1019)     51057.6  Rx         02A2  7  00 00 00 00 00 00 00 
  1020)     51057.7  Rx         02F2  2  62 02 
  1021)     51057.9  Rx         0352  8  02 57 08 4E 08 80 B0 5A 
  1022)     51058.2  Rx         0545  8  02 00 03 00 00 00 50 9F 
  1023)     51058.4  Rx         0712  8  02 2A E2 0B 01 0C D3 0B 
  1024)     51059.2  Rx         02C4  8  CB 73 6A 12 15 8F 06 00 
  1025)     51059.5  Rx         0204  8  66 02 0E 0E 00 78 00 01 
  1026)     51059.7  Rx         0201  8  00 32 4F 1A 00 E4 FF 00 
  1027)     51059.9  Rx         0264  6  D6 0D 9E 0E 78 00 
  1028)     51060.2  Rx         0224  8  04 08 00 C0 E3 00 10 08 
  1029)     51060.4  Rx         02B4  6  3D 05 0D 0F F4 00 
  1030)     51060.6  Rx         02E1  8  FC 1B 8B F9 96 81 09 00 
  1031)     51060.8  Rx         03AE  8  AB 40 00 08 00 00 01 F5 
  1032)     51061.1  Rx         0129  8  8A 21 B0 60 00 20 FF 3F 
  1033)     51061.2  Rx         0409  1  00 
  1034)     51061.4  Rx         0719  8  EE C3 00 00 61 00 00 14 
  1035)     51061.7  Rx         075D  8  80 00 00 00 00 00 00 30 
  1036)     51061.9  Rx         021D  8  AE 18 49 0C 8C 00 30 05 
  1037)     51062.2  Rx         031E  8  00 00 00 00 00 00 00 00 
  1038)     51062.4  Rx         025D  8  70 91 29 AC 04 F5 00 00 
  1039)     51062.6  Rx         027D  8  00 00 00 00 00 00 00 00 
  1040)     51062.9  Rx         03A3  8  12 D0 00 00 98 0B FC 01 
  1041)     51063.1  Rx         029D  4  00 00 00 20 
  1042)     51063.2  Rx         041D  1  34 
  1043)     51063.3  Rx         02BD  4  00 00 00 00 
  1044)     51063.5  Rx         043D  6  25 18 FF 1F FF 02 
  1045)     51063.7  Rx         049D  6  00 00 00 00 00 40 
  1046)     51064.0  Rx         0132  6  28 96 0B 00 50 40 
  1047)     51064.2  Rx         022B  8  FF FF FF FF FF FF FF FF 
  1048)     51064.4  Rx         0400  7  00 E0 FB BE EF FB 00 
  1049)     51064.6  Rx         0401  8  11 2A B4 9C B8 9C B8 9C 
  1050)     51065.2  Rx         03A8  8  03 00 00 00 00 00 00 00 
  1051)     51065.5  Rx         03C2  8  29 55 00 00 00 00 00 00 
  1052)     51065.7  Rx         02F9  8  D0 FB 07 10 00 00 00 00 
  1053)     51066.4  Rx         0263  8  D9 4B EE 62 AE 4F 5F 1F 
  1054)     51066.6  Rx         0261  8  00 10 0C 00 FF 4F E0 78 
  1055)     51066.8  Rx         02B3  8  01 8D 8C 87 7A 8C 8E 7B 
  1056)     51067.0  Rx         03A1  8  88 42 0C 8A 01 14 82 B7 
  1057)     51067.3  Rx         0234  8  2D 19 03 00 37 00 34 4F 
  1058)     51067.5  Rx         03C8  8  00 00 00 00 00 00 00 00 
  1059)     51068.0  Rx         04F3  4  00 00 00 00 
  1060)     51068.1  Rx         0213  2  F8 0D 
  1061)     51068.4  Rx         0393  8  06 00 01 D9 07 C0 1E 20 
  1062)     51069.2  Rx         0253  8  01 61 4F 3F 64 00 2A 04 
  1063)     51071.0  Rx         0129  8  C3 22 B0 60 00 20 FF 3F 
  1064)     51071.1  Rx         01FA  3  1A C0 01 
  1065)     51071.4  Rx         0285  8  04 00 00 00 00 00 00 00 
  1066)     51071.7  Rx         0420  7  28 01 40 4B 00 80 06 
  1067)     51071.9  Rx         03E8  8  06 00 00 00 00 00 00 00 
  1068)     51072.5  Rx         0207  8  00 00 00 01 00 00 00 00 
  1069)     51072.7  Rx         03F9  8  07 00 00 00 00 00 00 00 
  1070)     51073.6  Rx         0132  6  28 96 0C 00 53 40 
  1071)     51074.3  Rx         020C  8  3D 78 39 1E 1C 01 30 0E 
  1072)     51074.5  Rx         02C1  8  21 2B 0D 0A 02 00 00 00 
  1073)     51074.8  Rx         02E1  8  05 00 00 00 00 30 26 00 
  1074)     51075.1  Rx         0677  8  00 00 00 00 00 00 00 00 
  1075)     51076.3  Rx         0243  8  02 FC 43 0F 05 63 00 00 
  1076)     51076.6  Rx         045A  8  44 46 47 C6 5F 23 47 3F 
  1077)     51076.8  Rx         0788  8  02 40 C6 47 4E 00 00 00 
  1078)     51077.1  Rx         0242  3  10 55 84 
  1079)     51078.6  Rx         0340  8  00 00 00 00 00 00 00 00 
  1080)     51078.8  Rx         0381  8  11 00 00 00 00 00 00 00 
  1081)     51079.7  Rx         0339  8  01 41 02 00 00 03 40 0C 
  1082)     51080.3  Rx         04E3  8  01 F3 04 00 00 00 28 00 
  1083)     51081.0  Rx         0129  8  D4 23 B0 60 00 20 FF 3F 
  1084)     51081.9  Rx         07A8  8  01 00 00 00 FF A1 E8 12 
  1085)     51082.5  Rx         0261  8  31 00 26 00 89 49 FA 51 
  1086)     51082.7  Rx         0441  8  3A 85 89 00 32 00 20 03 
  1087)     51083.2  Rx         0360  8  05 00 00 00 00 00 00 00 
  1088)     51083.6  Rx         0132  6  28 96 0C 00 50 40 
  1089)     51083.8  Rx         0372  8  06 17 AB 19 26 23 19 02 
  1090)     51084.1  Rx         0401  8  12 2A B6 9C C0 9C AC 9C 
  1091)     51084.5  Rx         0201  8  59 38 98 00 01 00 00 00 
  1092)     51085.6  Rx         07AA  8  09 92 06 92 06 01 00 00 
  1093)     51086.2  Rx         03A2  8  C2 A7 FF 7F 00 00 00 00 
  1094)     51086.4  Rx         0263  8  02 00 A0 47 0F 3C 3C 41 
  1095)     51086.7  Rx         01F9  8  00 00 00 00 00 00 00 00 
  1096)     51086.9  Rx         0288  8  03 16 00 8F 80 00 91 43 
  1097)     51087.1  Rx         0343  8  00 91 40 1E 96 00 00 00 
  1098)     51087.3  Rx         0113  3  01 97 01 
  1099)     51087.4  Rx         07F4  1  01 
  1100)     51087.6  Rx         07FF  8  04 87 5E F7 59 00 01 00 
  1101)     51087.9  Rx         0318  8  1A 03 0A 16 1E 2E 33 D7 
  1102)     51088.1  Rx         0458  7  00 00 20 00 00 00 00 
  1103)     51088.3  Rx         039D  5  45 5C 21 28 00 
  1104)     51088.5  Rx         0666  4  00 00 A0 00 
  1105)     51088.7  Rx         02E1  8  46 80 02 00 10 FD CA 69 
  1106)     51088.9  Rx         055A  8  04 00 00 00 00 00 00 00 
  1107)     51089.2  Rx         0405  8  10 00 00 00 00 35 59 4A 
  1108)     51089.4  Rx         0102  8  22 B3 48 02 B6 44 A1 09 
  1109)     51089.6  Rx         0241  7  36 32 CC 0E 8F 55 00 
  1110)     51089.9  Rx         0545  8  20 02 44 A0 99 97 69 E9 
  1111)     51090.2  Rx         01FB  8  00 00 00 00 00 00 00 00 
  1112)     51090.3  Rx         0727  2  0B 00 
  1113)     51091.0  Rx         0129  8  52 24 B0 60 00 20 FF 3F 
  1114)     51091.9  Rx         0228  8  03 16 00 8F 80 00 81 D3 
  1115)     51092.3  Rx         03C3  8  00 00 00 00 00 51 00 00 
  1116)     51092.5  Rx         03E3  4  00 00 00 00 
  1117)     51093.5  Rx         0119  4  00 00 00 00 
  1118)     51093.7  Rx         0132  6  28 96 0C 00 53 40 
  1119)     51093.9  Rx         023E  8  F4 01 3A A6 FA FC 8F 9A 
  1120)     51094.5  Rx         02C1  8  02 19 06 00 00 D0 92 09 
  1121)     51094.9  Rx         0247  8  31 0F FF 0F 00 46 02 00 
  1122)     51095.2  Rx         0227  8  EC 03 19 00 41 00 00 81 
  1123)     51095.4  Rx         0122  8  00 00 12 12 D2 00 00 00 
  1124)     51096.3  Rx         0243  8  03 00 00 80 0F 4D 08 00 
  1125)     51096.6  Rx         02A8  8  02 10 00 00 06 80 00 42 
  1126)     51097.3  Rx         0287  8  38 39 37 38 01 03 00 00 
  1127)     51098.3  Rx         0553  8  00 00 00 00 00 00 40 98 
  1128)     51098.6  Rx         0261  8  82 29 2D 02 80 5C 01 E5 
  1129)     51100.4  Rx         025B  8  D3 C0 02 05 CA 8C 20 6B 
  1130)     51100.6  Rx         0221  8  40 41 05 15 00 50 71 7F 
  1131)     51100.9  Rx         02F1  8  0E 00 00 00 00 00 00 00 
  1132)     51101.1  Rx         0129  8  45 25 B0 60 00 20 FF 3F 
  1133)     51101.3  Rx         0272  8  09 80 63 00 00 00 00 00 
  1134)     51101.5  Rx         0249  4  5E 09 00 00 
  1135)     51101.8  Rx         03AE  8  AB 40 00 08 00 00 11 05 
  1136)     51102.0  Rx         02E8  8  02 10 00 00 06 80 F0 72 
  1137)     51102.2  Rx         0439  8  00 00 00 00 00 18 02 01 
  1138)     51102.5  Rx         078A  8  01 00 01 00 E4 5D C8 5E 
  1139)     51102.7  Rx         02E1  8  10 21 04 00 10 00 00 04 
  1140)     51103.2  Rx         0682  8  00 00 00 40 04 04 40 45 
  1141)     51103.6  Rx         0132  6  28 96 0C 00 55 40 
  1142)     51103.8  Rx         0401  8  13 2A B8 9C B3 9C A6 9C 
  1143)     51104.3  Rx         0383  8  A9 18 20 00 3B B0 C0 05 
  1144)     51106.3  Rx         0263  8  03 00 00 00 00 00 00 00 
  1145)     51106.5  Rx         0428  6  00 00 00 10 00 00 
  1146)     51107.2  Rx         0282  8  04 39 12 09 D8 B4 02 24 
  1147)     51109.5  Rx         0201  8  02 00 00 00 00 00 00 00 
  1148)     51109.7  Rx         0719  8  0C C0 0F 00 50 00 20 00 
  1149)     51110.3  Rx         0423  7  00 00 10 00 00 00 00 
  1150)     51111.0  Rx         0129  8  9F 26 B0 60 00 20 FF 3F 
  1151)     51111.5  Rx         03F5  8  00 C8 C8 39 80 0C 00 00 
  1152)     51111.9  Rx         0448  6  00 00 10 10 00 00 
  1153)     51113.1  Rx         01F8  4  00 00 00 00 
  1154)     51113.6  Rx         0132  6  28 96 0C 00 4D 40 
  1155)     51113.8  Rx         02A3  8  01 00 00 00 00 20 00 00 
  1156)     51114.2  Rx         022B  8  FF FF FF FF FF FF FF FF 
  1157)     51114.4  Rx         03E9  8  F0 00 00 40 00 00 10 2C 
  1158)     51114.7  Rx         0261  8  5B 4C 0A 00 00 40 15 34 
  1159)     51114.9  Rx         02C1  8  B3 1A 98 00 00 00 00 00 
  1160)     51115.2  Rx         0677  8  01 00 00 00 00 00 00 00 
  1161)     51115.4  Rx         03C2  8  00 55 55 55 00 00 69 05 
  1162)     51115.6  Rx         040A  8  01 10 00 00 00 00 A0 BF 
  1163)     51116.4  Rx         02C3  8  00 00 00 4C 01 00 80 CB 
  1164)     51116.6  Rx         0243  8  04 FC D3 F1 8D 7C FF FF 
  1165)     51116.8  Rx         02E1  8  29 2A 00 FF 0F 00 00 00 
  1166)     51117.0  Rx         0234  8  21 20 02 F4 E8 03 40 FD 
  1167)     51117.3  Rx         0379  8  03 C0 0C 48 33 37 21 00 
  1168)     51117.6  Rx         0381  8  B2 00 00 00 00 00 A8 00 
  1169)     51117.8  Rx         03A1  8  C3 FF FF 35 3E 00 90 84 
  1170)     51118.2  Rx         0473  8  00 00 03 00 00 00 00 00 
  1171)     51118.5  Rx         03B3  8  10 80 04 30 80 00 B8 88 
  1172)     51119.2  Rx         0289  8  00 00 00 00 00 00 80 12 
  1173)     51119.4  Rx         03A2  8  60 25 F2 B6 7C 8A C2 6F 
  1174)     51120.2  Rx         031C  8  18 04 72 78 FE FF 07 00 
  1175)     51121.0  Rx         0129  8  88 27 B0 60 00 20 FF 3F 
  1176)     51122.4  Rx         02D1  2  FF 01 
  1177)     51122.7  Rx         0545  8  01 00 00 00 00 10 70 CB 
  1178)     51122.9  Rx         0709  8  08 00 00 00 00 00 00 00 
  1179)     51123.4  Rx         0139  1  00 
  1180)     51123.6  Rx         0132  6  28 96 0C 00 56 40 
  1181)     51123.9  Rx         0320  8  02 00 00 00 00 00 00 00 
  1182)     51124.1  Rx         0401  8  14 2A AC 9C B8 9C B5 9C 
  1183)     51124.6  Rx         031D  8  00 00 00 00 00 00 00 00 
  1184)     51125.2  Rx         02D7  5  00 48 05 00 80 
  1185)     51126.4  Rx         0263  8  04 00 00 00 B0 20 00 00 
  1186)     51126.6  Rx         02B3  8  E2 4E 07 00 C0 BE 3D 00 
  1187)     51126.9  Rx         045A  8  FD 07 00 7F 02 00 4F 00 
  1188)     51128.1  Rx         039D  5  46 5D 21 28 00 
  1189)     51128.3  Rx         0214  8  00 0F 00 A0 00 00 00 00 
  1190)     51130.5  Rx         02E1  8  02 00 00 00 FF 00 02 00 
  1191)     51130.7  Rx         0261  8  CC 00 78 4B 00 40 24 21 
  1192)     51131.0  Rx         037A  8  7B 00 00 00 00 00 00 00 
  1193)     51131.2  Rx         0129  8  F2 28 B0 60 01 20 FF 3F 
  1194)     51131.5  Rx         04E2  8  02 D7 04 00 00 00 28 00 
  1195)     51132.2  Rx         0505  8  0B 86 00 00 00 00 3E 0C 
  1196)     51132.4  Rx         0225  4  15 45 D2 00 
  1197)     51132.6  Rx         0441  8  72 01 B6 C3 58 00 25 D2 
  1198)     51133.5  Rx         0421  7  00 14 00 00 00 D0 48 
  1199)     51133.7  Rx         0132  6  28 96 0C 00 54 40 
  1200)     51134.0  Rx         023E  8  F4 01 3A A6 FA FC 9F AA 
  1201)     51134.5  Rx         03BD  8  18 06 00 00 00 00 00 00 
  1202)     51134.8  Rx         0201  8  03 00 00 00 00 00 00 00 
  1203)     51135.0  Rx         02BF  7  00 00 00 00 00 00 00 
  1204)     51135.3  Rx         02C1  8  04 00 00 00 00 00 00 00 
  1205)     51135.8  Rx         022A  4  00 00 1D 18 
  1206)     51136.3  Rx         0243  8  00 FC CF 0C 9A 44 0D 49 
  1207)     51137.2  Rx         0262  8  0B 00 D1 FA 00 F0 92 12 
  1208)     51137.6  Rx         0359  8  13 00 00 00 00 00 00 00 
  1209)     51138.3  Rx         0283  6  01 00 00 00 41 00 
  1210)     51139.4  Rx         03AE  8  AB 40 00 08 00 00 21 15 
  1211)     51140.2  Rx         01FB  8  05 02 00 00 00 00 00 00 
  1212)     51140.8  Rx         0308  8  00 01 00 A0 01 80 E7 0F 
  1213)     51141.1  Rx         0129  8  0A 29 B0 60 00 20 FF 3F 
  1214)     51143.2  Rx         0552  8  00 00 00 00 00 00 50 A7 
  1215)     51143.6  Rx         0132  6  28 96 0C 00 54 40 
  1216)     51143.8  Rx         0372  8  07 22 13 99 C8 46 46 1F 
  1217)     51144.0  Rx         0401  8  15 2A B6 9C B5 9C B4 9C 
  1218)     51144.4  Rx         03C0  8  07 00 00 00 00 00 00 00 
  1219)     51144.6  Rx         02E1  8  03 6D 66 02 1B 9B 00 00 
  1220)     51144.8  Rx         038A  8  03 00 00 00 00 00 00 00 
  1221)     51146.4  Rx         0263  8  E0 43 F6 6A A6 4F 5F 1F 
  1222)     51146.6  Rx         0261  8  05 22 F1 C7 9A 42 30 19 
  1223)     51149.1  Rx         0422  6  F2 06 04 00 00 00 
  1224)     51150.3  Rx         0103  8  22 B3 88 04 C2 12 21 32 
  1225)     51150.5  Rx         0221  8  41 01 55 51 01 02 80 8E 
  1226)     51151.0  Rx         0129  8  D5 2A B0 60 00 20 FF 3F 
  1227)     51151.1  Rx         0229  3  8C 0B 00 
  1228)     51151.3  Rx         0249  4  E2 0A 00 00 
  1229)     51151.6  Rx         054F  8  00 00 00 00 00 00 00 00 
  1230)     51151.8  Rx         039A  8  FD FD FD FD FD 01 00 02 
  1231)     51152.2  Rx         03A2  8  01 00 10 00 00 00 00 00 
  1232)     51153.6  Rx         0132  6  28 96 0C 00 50 40 
  1233)     51154.4  Rx         0419  1  00 
  1234)     51154.6  Rx         02C1  8  50 44 FE 00 50 8E 02 00 
  1235)     51154.8  Rx         0381  8  13 00 00 00 00 04 FC FF 
  1236)     51155.1  Rx         0677  8  02 00 00 00 00 00 00 00 
  1237)     51155.3  Rx         02C2  8  20 40 C0 4B 01 00 40 CB 
  1238)     51155.6  Rx         0545  8  02 00 03 00 00 00 80 CF 
  1239)     51155.8  Rx         0212  8  59 5C 02 40 83 05 30 43 
  1240)     51156.0  Rx         0252  8  E4 1B 52 06 8C 28 1D 00 
  1241)     51156.3  Rx         0292  8  FB B2 BB 70 C2 01 E6 00 
  1242)     51156.5  Rx         0123  8  01 00 00 00 00 3F 00 00 
  1243)     51156.6  Rx         020E  2  17 07 
  1244)     51156.9  Rx         0243  8  01 FC 3F 47 3E 00 63 63 
  1245)     51157.1  Rx         0281  6  1B 00 FF 1F 00 01 
  1246)     51157.3  Rx         02A2  7  00 00 00 00 00 00 00 
  1247)     51157.5  Rx         02D2  8  54 2F C0 4E 0B 07 6F 01 
  1248)     51157.7  Rx         02F2  2  62 02 
  1249)     51157.9  Rx         0712  8  03 2A 53 0C 32 0C 7D 0B 
  1250)     51158.3  Rx         031A  8  03 00 00 00 00 00 A0 C0 
  1251)     51158.6  Rx         02E1  8  FC 1B 89 F9 96 80 09 00 
  1252)     51159.2  Rx         02C4  8  0C 80 00 00 1A 8F 06 00 
  1253)     51159.5  Rx         0407  7  12 07 00 00 00 00 00 
  1254)     51159.7  Rx         0201  8  00 31 4F 1A 00 E4 FF 00 
  1255)     51160.0  Rx         0204  8  66 02 0E 0E 00 78 00 01 
  1256)     51160.2  Rx         0224  8  04 08 00 80 E3 00 10 08 
  1257)     51160.4  Rx         0264  6  D7 0D 9E 0E 78 00 
  1258)     51160.6  Rx         02B4  6  3A 05 0C 0F F4 00 
  1259)     51160.9  Rx         034A  8  01 00 00 00 00 00 00 60 
  1260)     51161.1  Rx         0129  8  24 2B B0 60 00 20 FF 3F 
  1261)     51161.3  Rx         03C4  8  14 06 00 00 F0 66 A1 BA 
  1262)     51161.5  Rx         0409  1  00 
  1263)     51161.7  Rx         021D  8  AE 18 49 0C 8C 00 30 05 
  1264)     51161.9  Rx         031E  8  01 00 00 00 00 00 00 00 
  1265)     51162.1  Rx         041D  1  34 
  1266)     51162.3  Rx         025D  8  70 91 29 AC 04 F5 00 00 
  1267)     51162.5  Rx         03A3  8  12 D0 00 00 98 0B FC 01 
  1268)     51162.7  Rx         0261  8  00 10 0D 00 FF 4F 40 D9 
  1269)     51163.0  Rx         027D  8  00 00 00 00 00 00 00 00 
  1270)     51163.2  Rx         029D  4  00 00 00 20 
  1271)     51163.3  Rx         02BD  4  00 00 00 00 
  1272)     51163.6  Rx         043B  8  02 7F 00 FF 00 00 00 00 
  1273)     51163.8  Rx         043D  6  25 18 FF 1F FF 02 
  1274)     51164.0  Rx         0132  6  28 96 0C 00 4F 40 
  1275)     51164.2  Rx         022B  8  FF FF FF FF FF FF FF FF 
  1276)     51164.4  Rx         0400  7  00 E0 FB BE EF FB 00 
  1277)     51164.7  Rx         0401  8  16 2A B7 9C BC 9C B4 9C 
  1278)     51164.9  Rx         049D  6  00 00 00 00 00 40 
  1279)     51165.1  Rx         0719  8  0D 00 00 00 00 00 00 00 
  1280)     51165.4  Rx         02E2  8  02 42 2C 49 49 49 09 00 
  1281)     51165.6  Rx         02F9  8  D0 FB 07 18 00 00 00 00 
  1282)     51165.9  Rx         03C2  8  29 55 00 00 00 00 00 00 
  1283)     51166.0  Rx         0726  3  08 00 00 
  1284)     51166.4  Rx         0263  8  D9 4B EE 62 AE 4F 5F 1F 
  1285)     51166.6  Rx         03A1  8  88 42 0C 8A 01 14 A2 D7 
  1286)     51166.8  Rx         03C8  8  01 00 00 00 00 00 00 00 
  1287)     51167.1  Rx         07AA  8  0A 81 06 81 06 00 58 00 
  1288)     51167.3  Rx         0234  8  2D 19 03 00 37 00 54 6F 
  1289)     51168.0  Rx         039D  5  47 5E 21 28 00 
  1290)     51168.3  Rx         0393  8  09 80 63 00 00 00 00 00 
  1291)     51168.5  Rx         0333  5  84 0C 2F 07 00 
  1292)     51168.8  Rx         0334  8  BF 3F 14 80 FC 07 52 1E 
  1293)     51169.0  Rx         03FD  8  00 00 00 3C 20 01 03 80 
  1294)     51171.0  Rx         0129  8  44 2C B0 60 00 20 FF 3F 
  1295)     51171.1  Rx         01FA  3  1A C0 01 
  1296)     51171.4  Rx         0420  7  28 01 40 4B 00 00 07 
  1297)     51171.9  Rx         03E8  8  00 00 00 00 00 00 00 00 
  1298)     51172.2  Rx         0207  8  00 00 00 01 00 00 00 00 
  1299)     51172.6  Rx         02E1  8  05 00 00 00 00 30 26 00 
  1300)     51172.8  Rx         03F9  8  08 00 00 00 00 00 00 00 
  1301)     51173.6  Rx         0132  6  28 96 0C 00 53 40 
  1302)     51174.0  Rx         023E  8  F4 01 3A A6 FA FC AF BA 
  1303)     51174.3  Rx         020C  8  3C 78 39 1E 1C 01 30 0E 
  1304)     51174.6  Rx         02C1  8  21 2B 0D 0A 02 00 00 00 
  1305)     51175.8  Rx         0748  5  28 1D 0A 00 00 
  1306)     51176.3  Rx         0243  8  02 FC 43 0F 05 63 00 00 
  1307)     51176.6  Rx         045A  8  44 46 47 C6 5F 23 47 3F 
  1308)     51176.8  Rx         0788  8  C4 CC B1 63 00 00 84 00 
  1309)     51177.1  Rx         0242  3  10 55 84 
  1310)     51178.5  Rx         0340  8  01 00 00 00 00 00 00 00 
  1311)     51178.8  Rx         0261  8  31 00 1A 00 89 49 5A A5 
  1312)     51179.5  Rx         03AE  8  AB 40 00 08 00 00 31 25 
  1313)     51179.8  Rx         0339  8  01 41 02 00 00 03 40 0C 
  1314)     51180.3  Rx         04E3  8  02 87 01 FB 0F 00 28 00 
  1315)     51181.0  Rx         0129  8  56 2D B0 60 00 20 FF 3F 
  1316)     51181.9  Rx         07A8  8  02 40 C2 F7 4E 0F 00 00 
  1317)     51182.5  Rx         0441  8  3A 85 89 00 32 00 28 0B 
  1318)     51183.2  Rx         0360  8  16 00 00 00 00 00 00 00 
  1319)     51183.6  Rx         0132  6  28 96 0C 00 54 40 
  1320)     51183.8  Rx         0401  8  17 2A B5 9C B5 9C B8 9C 
  1321)     51184.5  Rx         0201  8  59 38 98 00 01 00 00 00 
  1322)     51185.2  Rx         03A2  8  D2 A7 FF 7F 00 00 00 00 
  1323)     51186.3  Rx         0343  8  00 91 44 2E 96 00 00 00 
  1324)     51186.6  Rx         01F9  8  00 00 00 00 00 00 00 00 
  1325)     51186.8  Rx         0263  8  02 00 A0 47 0F 3C 3C 41 
  1326)     51187.1  Rx         0288  8  03 16 00 8F 80 00 A1 53 
  1327)     51187.3  Rx         02B3  8  03 46 46 E4 08 00 00 69 
  1328)     51187.4  Rx         0113  3  01 97 01 
  1329)     51187.7  Rx         02E1  8  46 80 02 00 10 FD CA 69 
  1330)     51187.8  Rx         07F4  1  01 
  1331)     51188.0  Rx         07FF  8  05 00 00 01 20 00 80 00 
  1332)     51188.3  Rx         0318  8  1A 03 0A 16 1E 2E 35 D9 
  1333)     51188.5  Rx         0458  7  00 00 20 00 00 00 00 
  1334)     51188.7  Rx         0545  8  70 02 44 90 99 96 99 58 
  1335)     51189.2  Rx         0102  8  22 B3 48 02 B6 42 A1 09 
  1336)     51189.5  Rx         0241  7  34 32 CC 0E 8F 55 00 
  1337)     51190.2  Rx         01FB  8  00 00 00 00 00 00 00 00 
  1338)     51191.0  Rx         0129  8  24 2E B0 60 01 20 FF 3F 
  1339)     51191.9  Rx         0228  8  03 16 00 8F 80 00 91 E3 
  1340)     51192.4  Rx         03C3  8  55 55 55 01 00 00 00 00 
  1341)     51192.6  Rx         0381  8  14 00 00 00 00 00 00 00 
  1342)     51193.5  Rx         0119  4  00 00 00 00 
  1343)     51193.7  Rx         0132  6  28 96 0C 00 54 40 
  1344)     51194.5  Rx         0261  8  82 29 2D 02 80 5C 61 45 
  1345)     51194.8  Rx         02C1  8  02 19 06 00 00 D0 92 09 
  1346)     51195.0  Rx         0227  8  F0 03 1A 00 41 00 00 81 
  1347)     51195.3  Rx         0122  8  01 00 00 00 00 3F 00 00 
  1348)     51195.5  Rx         0247  8  30 0F FF 0F 00 46 02 00 
  1349)     51195.7  Rx         0677  8  03 00 00 00 00 00 00 00 
  1350)     51196.3  Rx         0243  8  03 00 00 80 0F 4D 08 00 
  1351)     51196.6  Rx         02A8  8  02 10 00 00 06 80 10 52 
  1352)     51197.9  Rx         0287  8  38 39 37 38 01 03 00 00 
  1353)     51198.3  Rx         0553  8  00 00 00 00 00 00 50 A8 
  1354)     51199.4  Rx         025B  8  D3 C0 02 05 CA 8C 30 7B 
  1355)     51200.5  Rx         02F1  8  0F 5E A9 96 99 B3 39 00 
  1356)     51200.8  Rx         0221  8  40 41 05 15 00 50 91 9F 
  1357)     51201.0  Rx         02E1  8  10 21 04 00 10 00 00 04 
  1358)     51201.2  Rx         0129  8  11 2F B0 60 FF 1F FF 3F 
  1359)     51201.5  Rx         0272  8  06 00 01 D1 07 C0 1E 20 
  1360)     51201.7  Rx         0249  4  28 0B 00 00 
  1361)     51201.9  Rx         0439  8  00 00 00 00 00 18 02 01 
  1362)     51202.1  Rx         02E8  8  02 10 00 00 06 80 00 82 
  1363)     51202.4  Rx         078A  8  01 00 02 00 66 06 65 06 
  1364)     51203.1  Rx         0682  8  00 00 00 40 04 04 50 55 
  1365)     51203.6  Rx         0132  6  28 96 0C 00 51 40 
  1366)     51203.8  Rx         0372  8  08 F4 A1 0F 7D E8 43 1F 
  1367)     51204.0  Rx         0401  8  18 2A A3 9C B5 9C C0 9C 
  1368)     51204.3  Rx         0383  8  A9 18 20 00 3B B0 C0 05 
  1369)     51206.3  Rx         0263  8  03 00 00 00 00 00 00 00 
  1370)     51206.6  Rx         0428  6  00 00 00 10 00 00 
  1371)     51207.2  Rx         0282  8  0C 39 C2 08 D8 B4 02 24 
  1372)     51208.1  Rx         039D  5  48 5F 21 28 00 
  1373)     51209.5  Rx         0201  8  02 00 00 00 00 00 00 00 
  1374)     51209.8  Rx         0719  8  33 00 10 00 00 00 00 00 
  1375)     51210.3  Rx         0423  7  00 00 10 00 00 00 00 
  1376)     51210.5  Rx         0261  8  5B 4C 0A 00 00 40 75 94 
  1377)     51211.0  Rx         0129  8  9D 20 B0 60 00 20 FF 3F 
  1378)     51211.6  Rx         03F5  8  00 C8 C8 39 80 0C 00 00 
  1379)     51211.9  Rx         0448  6  00 00 10 10 00 00 
  1380)     51213.1  Rx         01F8  4  00 00 00 00 
  1381)     51213.6  Rx         0132  6  28 96 0C 00 4C 40 
  1382)     51213.9  Rx         02A3  8  01 00 00 00 00 20 00 00 
  1383)     51214.1  Rx         023E  8  F4 01 3A A6 FA FC BF CA 
  1384)     51214.3  Rx         022B  8  FF FF FF FF FF FF FF FF 
  1385)     51214.6  Rx         02C1  8  B3 1A 98 00 00 00 00 00 
  1386)     51214.8  Rx         02E1  8  29 2A 00 FF 0F 00 00 00 
  1387)     51215.2  Rx         03E2  7  02 00 00 00 00 C0 00 
  1388)     51215.4  Rx         03C2  8  00 55 55 55 00 00 69 05 
  1389)     51216.3  Rx         02C3  8  55 03 A8 06 00 00 12 A5 
  1390)     51216.6  Rx         0243  8  04 FC D3 F1 8D 7C FF FF 
  1391)     51216.8  Rx         0379  8  04 00 C4 65 C0 01 00 00 
  1392)     51217.1  Rx         0234  8  21 20 02 F3 E8 03 60 1C 
  1393)     51217.3  Rx         03A1  8  C3 FF FF 33 3E 00 B0 A2 
  1394)     51218.0  Rx         03BB  2  35 0F 
  1395)     51218.3  Rx         03A2  8  60 45 F2 BB 1C 8A C2 6F 
  1396)     51219.2  Rx         0289  8  00 00 00 00 00 00 80 12 
  1397)     51219.4  Rx         02F3  8  8E 0E 0B 04 00 20 00 02 
  1398)     51219.7  Rx         03AE  8  AB 40 00 08 00 00 41 35 
  1399)     51219.9  Rx         033A  8  B6 A8 93 4C FE FF 57 61 
  1400)     51220.1  Rx         0273  8  89 E1 10 40 C8 02 30 01 
  1401)     51220.4  Rx         031C  8  18 04 72 78 FE FF 07 00 
  1402)     51220.6  Rx         03FD  8  01 00 02 00 00 18 53 80 
  1403)     51221.0  Rx         0129  8  8A 21 B0 60 00 20 FF 3F 
  1404)     51221.6  Rx         0545  8  01 00 00 00 00 10 A0 FB 
  1405)     51222.4  Rx         02D1  2  FF 01 
  1406)     51223.5  Rx         0139  1  00 
  1407)     51223.6  Rx         0132  6  28 96 0C 00 53 40 
  1408)     51223.9  Rx         0401  8  19 2A BE 9C BB 9C BA 9C 
  1409)     51224.3  Rx         02E3  7  14 9F 63 89 2D 06 00 
  1410)     51224.6  Rx         031D  8  00 00 00 00 00 00 00 00 
  1411)     51225.1  Rx         02D7  5  00 48 05 00 80 
  1412)     51226.4  Rx         0263  8  04 00 00 00 B0 20 00 00 
  1413)     51226.6  Rx         0261  8  CC 00 78 4B 00 40 84 81 
  1414)     51226.9  Rx         045A  8  FD 07 00 7F 02 00 4F 00 
  1415)     51228.2  Rx         0214  8  00 0F 00 A0 00 00 00 00 
  1416)     51228.5  Rx         02E1  8  02 00 00 00 FF 00 02 00 
  1417)     51230.5  Rx         0381  8  15 60 58 32 50 00 1A 01 
  1418)     51230.8  Rx         037A  8  C0 00 00 00 00 00 00 00 
  1419)     51231.0  Rx         0129  8  AA 22 B0 60 FF 1F FF 3F 
  1420)     51231.3  Rx         04E2  8  03 03 02 00 00 00 28 00 
  1421)     51232.2  Rx         0505  8  1F AE 77 8D 06 43 0C 00 
  1422)     51232.4  Rx         0225  4  15 45 D2 00 
  1423)     51232.6  Rx         0441  8  73 01 B6 C3 58 00 2D DB 
  1424)     51233.5  Rx         0421  7  00 14 00 00 00 D0 48 
  1425)     51233.7  Rx         0132  6  28 96 0C 00 53 40 
  1426)     51234.6  Rx         0321  8  37 DA A8 90 01 8A D0 C8 
  1427)     51234.8  Rx         0201  8  03 00 00 00 00 00 00 00 
  1428)     51235.0  Rx         02C1  8  04 00 00 00 00 00 00 00 
  1429)     51235.3  Rx         0677  8  04 00 00 00 00 00 00 00 
  1430)     51235.5  Rx         0718  7  03 00 00 00 00 00 00 
  1431)     51235.7  Rx         022A  4  00 00 1D 18 
  1432)     51236.3  Rx         0243  8  00 FC CF 0C 9A 44 0D 49 
  1433)     51237.2  Rx         0262  8  0B 00 D1 FA 00 F0 92 12 
  1434)     51237.6  Rx         0359  8  14 06 00 00 59 E1 42 9B 
  1435)     51238.3  Rx         0283  6  01 00 00 00 41 00 
  1436)     51240.2  Rx         01FB  8  05 02 00 00 00 00 00 00 
  1437)     51241.0  Rx         0129  8  79 23 B0 60 01 20 FF 3F 
  1438)     51242.5  Rx         02E1  8  03 6D 66 02 1B 99 00 00 
  1439)     51242.7  Rx         0261  8  05 22 F1 C7 9A 42 90 79 
  1440)     51243.2  Rx         0552  8  00 00 00 00 00 00 60 B7 
  1441)     51243.6  Rx         0132  6  28 96 0C 00 54 40 
  1442)     51243.8  Rx         0401  8  1A 2A BE 9C B8 9C B8 9C 
  1443)     51244.4  Rx         03C0  8  08 00 00 00 00 00 00 00 
  1444)     51244.6  Rx         038A  8  00 00 00 00 00 00 00 00 
  1445)     51246.2  Rx         07AA  8  0B 52 00 29 4F 00 3B 00 
  1446)     51246.5  Rx         0263  8  E0 43 F6 6A A6 4F 5F 1F 
  1447)     51246.7  Rx         02B3  8  24 A2 43 8D 1A 19 16 00 
  1448)     51248.1  Rx         039D  5  39 50 21 28 00 
  1449)     51249.2  Rx         0422  6  F2 06 04 00 00 00 
  1450)     51250.3  Rx         0103  8  22 B3 88 04 C2 14 21 32 
  1451)     51250.6  Rx         0221  8  41 01 55 51 01 02 A0 AE 
  1452)     51251.0  Rx         0129  8  52 24 B0 60 00 20 FF 3F 
  1453)     51251.2  Rx         03A2  8  01 00 10 00 00 00 00 00 
  1454)     51251.4  Rx         0229  3  49 0C 00 
  1455)     51251.6  Rx         0249  4  3A 0C 00 00 
  1456)     51251.8  Rx         039A  8  20 1F FB 96 FF FD FD 61 
  1457)     51252.0  Rx         054F  8  00 00 00 00 00 00 00 00 
  1458)     51253.6  Rx         0132  6  28 96 0C 00 54 40 
  1459)     51253.9  Rx         023E  8  F4 01 3A A6 FA FC CF DA 
  1460)     51254.6  Rx         02C1  8  50 44 FE 00 50 8E 02 00 
  1461)     51254.8  Rx         0545  8  02 00 03 00 00 00 B0 FF 
  1462)     51254.9  Rx         0419  1  00 
  1463)     51255.2  Rx         02C2  8  55 5B A9 06 00 00 12 A5 
  1464)     51255.9  Rx         02D2  8  55 2F C0 4E 0B 07 6F 01 
  1465)     51256.1  Rx         0212  8  59 5C 02 40 83 05 30 43 
  1466)     51256.4  Rx         0252  8  E4 1B 52 06 8C 28 1D 00 
  1467)     51256.6  Rx         0123  8  00 00 12 12 D2 00 00 00 
  1468)     51256.7  Rx         020E  2  10 00 
  1469)     51257.0  Rx         0243  8  01 FC 3E 47 3F 00 63 63 
  1470)     51257.2  Rx         0281  6  1B 00 FF 1F 00 01 
  1471)     51257.4  Rx         0292  8  FB B2 BB 70 C2 01 E6 00 
  1472)     51257.6  Rx         02A2  7  00 00 00 00 00 00 00 
  1473)     51257.9  Rx         02E1  8  FC 1B 89 F9 96 80 09 00 
  1474)     51258.0  Rx         02F2  2  62 02 
  1475)     51258.2  Rx         070B  8  03 D9 DB F3 F1 F4 EF E4 
  1476)     51258.4  Rx         0712  8  04 2A 6B 0C 58 0C F8 0B 
  1477)     51258.7  Rx         0261  8  00 10 0D 00 FF 4F A0 39 
  1478)     51258.9  Rx         0782  8  16 14 80 E1 C1 35 1F 07 
  1479)     51259.2  Rx         02C4  8  0D 14 28 50 00 00 C0 06 
  1480)     51259.5  Rx         0204  8  66 02 0E 0E 00 77 00 01 
  1481)     51259.7  Rx         0201  8  00 31 4F 1A 00 E4 FF 00 
  1482)     51259.9  Rx         0264  6  DA 0D 9E 0E 78 00 
  1483)     51260.2  Rx         0224  8  04 08 00 C0 E3 00 10 08 
  1484)     51260.4  Rx         02B4  6  39 05 0D 0F EC 00 
  1485)     51260.6  Rx         03AE  8  AB 40 00 08 00 00 51 45 
  1486)     51260.7  Rx         0409  1  00 
  1487)     51261.0  Rx         0719  8  03 00 00 00 00 00 00 00 
  1488)     51261.2  Rx         0129  8  45 25 B0 60 00 20 FF 3F 
  1489)     51261.5  Rx         075D  8  01 00 00 00 00 00 00 C0 
  1490)     51261.6  Rx         0399  3  00 00 00 
  1491)     51261.9  Rx         021D  8  AE 18 49 0C 8C 00 30 05 
  1492)     51262.1  Rx         031E  8  02 00 00 00 00 00 00 00 
  1493)     51262.3  Rx         025D  8  70 91 29 AC 04 F5 00 00 
  1494)     51262.6  Rx         03A3  8  14 D0 00 00 98 0B FC 01 
  1495)     51262.8  Rx         027D  8  00 00 00 00 00 00 00 00 
  1496)     51263.0  Rx         029D  4  00 00 00 20 
  1497)     51263.1  Rx         041D  1  34 
  1498)     51263.3  Rx         043D  6  25 18 FF 1F FF 02 
  1499)     51263.5  Rx         02BD  4  00 00 00 00 
  1500)     51263.7  Rx         049D  6  00 00 00 00 00 40 
  1501)     51263.9  Rx         0132  6  28 96 0C 00 51 40 
  1502)     51264.1  Rx         0372  8  09 00 00 00 00 F8 3F 02 
  1503)     51264.4  Rx         022B  8  FF FF FF FF FF FF FF FF 
  1504)     51264.6  Rx         0400  7  00 E0 FB BE EF FB 00 
  1505)     51264.8  Rx         0401  8  1B 2A 94 9C B5 9C 9F 9C 
  1506)     51265.2  Rx         03A8  8  1C E0 7F 4E FC 0F 00 00 
  1507)     51265.5  Rx         03C2  8  29 55 00 00 00 00 00 00 
  1508)     51265.7  Rx         02F9  8  D0 FB 07 20 00 00 00 00 
  1509)     51266.3  Rx         0263  8  D9 4B EE 62 AE 4F 5F 1F 
  1510)     51266.6  Rx         03A1  8  88 42 0C 8A 01 14 C2 F7 
  1511)     51266.8  Rx         03C8  8  02 00 00 00 00 00 00 00 
  1512)     51267.1  Rx         0234  8  2D 19 03 00 37 00 74 8F 
  1513)     51268.3  Rx         0393  8  06 00 03 D9 07 C0 1E 20 
  1514)     51268.6  Rx         0381  8  16 10 00 00 00 7F 00 00 
  1515)     51268.8  Rx         0294  8  14 8D 00 00 00 00 00 00 
  1516)     51270.1  Rx         03FD  8  02 00 00 00 00 00 00 80 
  1517)     51270.6  Rx         02E1  8  05 00 00 00 00 30 26 00 
  1518)     51271.0  Rx         0129  8  9F 26 B0 60 00 20 FF 3F 
  1519)     51271.2  Rx         01FA  3  1A C0 01 
  1520)     51271.6  Rx         0207  8  00 02 00 01 00 00 00 00 
  1521)     51271.8  Rx         0420  7  28 01 40 4B 00 80 07 
  1522)     51272.1  Rx         03E8  8  01 00 00 00 00 00 00 00 
  1523)     51272.6  Rx         03F9  8  00 00 00 00 02 00 00 00 
  1524)     51273.6  Rx         0132  6  28 96 0C 00 51 40 
  1525)     51274.3  Rx         020C  8  3E 78 39 1E 1C 01 30 0E 
  1526)     51274.6  Rx         0261  8  31 00 0F 00 89 49 BA FA 
  1527)     51274.8  Rx         02C1  8  21 2B 0D 0A 02 00 00 00 
  1528)     51275.0  Rx         0677  8  00 00 00 00 00 00 00 00 
  1529)     51276.3  Rx         0243  8  02 FC 2B 0F 05 63 00 00 
  1530)     51276.6  Rx         045A  8  44 46 47 C6 5F 23 47 3E 
  1531)     51276.8  Rx         0788  8  01 00 00 00 FF A1 F8 12 
  1532)     51277.1  Rx         0242  3  10 55 84 
  1533)     51278.5  Rx         0340  8  02 00 00 00 00 00 00 00 
  1534)     51279.7  Rx         0339  8  01 41 02 00 00 03 40 0C 
  1535)     51280.3  Rx         04E3  8  03 59 00 00 00 00 28 00 
  1536)     51281.0  Rx         0129  8  88 27 B0 60 00 20 FF 3F 
  1537)     51281.9  Rx         07A8  8  C0 CC B1 63 00 00 82 00 
  1538)     51282.6  Rx         0441  8  3A 85 89 00 32 00 30 13 
  1539)     51283.2  Rx         0360  8  07 00 00 00 00 00 00 00 
  1540)     51283.6  Rx         0132  6  28 96 0C 00 54 40 
  1541)     51283.8  Rx         0401  8  1C 2A 8F 9C C6 9C C1 9C 
