;$FILEVERSION=1.1
;$STARTTIME=46111.6650774653
;
;   Start time: 3/30/2026 15:57:42.693.0
;   Generated by PCAN-View v6.0.0.1040
;
;   Message Number
;   |         Time Offset (ms)
;   |         |        Type
;   |         |        |        ID (hex)
;   |         |        |        |     Data Length
;   |         |        |        |     |   Data Bytes (hex) ...
;   |         |        |        |     |   |
;---+--   ----+----  --+--  ----+---  +  -+ -- -- -- -- -- -- --
     1)    179710.0  Rx         025D  8  14 41 01 2A 04 F0 00 00 
     2)    179710.2  Rx         02E1  8  03 6D 66 02 1B 8C 00 00 
     3)    179710.5  Rx         03AA  8  01 00 00 00 00 00 00 00 
     4)    179710.7  Rx         023E  8  F4 01 3A C0 FA FC 0F 34 
     5)    179710.8  Rx         041D  1  14 
     6)    179711.1  Rx         04E3  8  03 59 00 00 00 00 28 00 
     7)    179711.3  Rx         075D  8  04 00 00 00 00 00 00 00 
     8)    179711.5  Rx         0682  8  00 00 00 40 04 04 D0 D5 
     9)    179711.8  Rx         077A  8  A1 11 54 5D 14 5E A8 5D 
    10)    179712.0  Rx         078A  8  01 00 04 00 F7 05 9A 00 
    11)    179713.1  Rx         0132  6  B2 96 7A FF 31 3F 
    12)    179713.4  Rx         02C1  8  21 6B 18 64 02 00 00 00 
    13)    179713.7  Rx         0381  8  05 00 00 00 80 D7 64 08 
    14)    179713.9  Rx         0677  8  00 00 00 00 00 00 00 00 
    15)    179714.1  Rx         0119  4  00 00 00 00 
    16)    179715.4  Rx         0242  3  55 55 86 
    17)    179716.5  Rx         0129  8  BF 29 8F 5F DC 1F FF 3F 
    18)    179716.7  Rx         0263  8  02 00 E0 07 10 3D 3E 21 
    19)    179716.9  Rx         0249  4  15 08 07 00 
    20)    179717.2  Rx         0343  8  00 91 40 7E 9F 00 00 00 
    21)    179717.5  Rx         0340  8  08 00 00 00 00 00 00 00 
    22)    179717.7  Rx         025B  8  D3 80 00 05 CA 8C 10 19 
    23)    179718.5  Rx         01D8  8  29 4C 04 3E 00 00 80 10 
    24)    179718.7  Rx         01E5  8  08 2C 04 00 00 00 00 1E 
    25)    179719.4  Rx         0118  8  0D 6A 95 00 2A C8 00 03 
    26)    179719.6  Rx         0266  8  07 00 0B 2A 0B 00 9F 01 
    27)    179721.0  Rx         0439  8  00 00 00 00 00 18 63 02 
    28)    179721.4  Rx         0261  8  CB 50 0A 00 00 40 95 28 
    29)    179721.7  Rx         0360  8  03 00 00 00 00 00 00 00 
    30)    179721.9  Rx         0441  8  8E 85 89 00 32 00 20 57 
    31)    179722.4  Rx         07AA  8  08 00 00 00 00 47 00 00 
    32)    179722.7  Rx         03A2  8  E0 25 F2 05 05 80 46 6F 
    33)    179722.9  Rx         03C3  8  00 00 00 00 00 51 00 00 
    34)    179723.1  Rx         0132  6  A8 96 87 FF 51 3F 
    35)    179723.3  Rx         03E3  4  00 00 00 00 
    36)    179723.5  Rx         0201  8  51 28 98 00 00 00 00 00 
    37)    179723.7  Rx         02E1  8  FC 1F 1E 3A A0 1C 0A 00 
    38)    179726.4  Rx         0545  8  01 00 00 00 00 10 40 9B 
    39)    179726.7  Rx         0129  8  4C 2A 8E 5F DF 1F FF 3F 
    40)    179726.9  Rx         0243  8  03 00 20 00 22 58 13 00 
    41)    179727.2  Rx         03E8  8  02 00 00 00 00 00 00 00 
    42)    179727.5  Rx         0102  8  22 B3 88 02 D4 46 A1 09 
    43)    179728.3  Rx         0118  8  7E 6B 95 00 2A C8 70 03 
    44)    179728.5  Rx         0241  7  32 32 94 8C 0C 55 00 
    45)    179728.7  Rx         01D8  8  29 4E 04 3E 00 00 A0 32 
    46)    179729.0  Rx         01FB  8  00 00 00 00 00 00 00 00 
    47)    179729.2  Rx         0266  8  07 00 0B 29 0B 00 9F 01 
    48)    179729.5  Rx         01E5  8  08 2C 04 00 00 00 20 3E 
    49)    179729.7  Rx         0257  8  C6 B6 24 04 1C 60 12 01 
    50)    179729.9  Rx         0553  8  00 00 00 00 00 00 C0 18 
    51)    179730.2  Rx         0719  8  0C 6E 0F 00 50 00 20 00 
    52)    179733.0  Rx         0132  6  C8 96 82 FF 33 3F 
    53)    179733.3  Rx         039D  5  47 5E 21 28 00 
    54)    179733.5  Rx         02C1  8  02 19 06 00 00 D0 92 09 
    55)    179733.7  Rx         0122  8  00 00 13 12 D2 00 00 00 
    56)    179734.6  Rx         0383  8  B1 18 1A 00 ED 40 C2 10 
    57)    179736.5  Rx         0129  8  76 2B 8D 5F E2 1F FF 3F 
    58)    179736.8  Rx         0263  8  03 00 00 00 00 00 00 00 
    59)    179737.0  Rx         02B3  8  AF 07 29 28 EE 0E 10 05 
    60)    179737.2  Rx         0379  8  04 00 5F 0C 80 01 00 01 
    61)    179737.4  Rx         0261  8  C4 FE 1F 50 00 40 A4 43 
    62)    179737.7  Rx         02E1  8  05 00 00 00 00 40 26 00 
    63)    179738.0  Rx         03C8  8  05 00 00 00 00 00 00 00 
    64)    179738.2  Rx         07A8  8  0C E5 E1 83 00 00 82 00 
    65)    179738.5  Rx         01D8  8  29 50 84 3E 00 00 C0 D4 
    66)    179738.7  Rx         01E5  8  08 2C 04 00 00 00 40 5E 
    67)    179739.4  Rx         0118  8  BF 6C 95 00 2A C8 B0 03 
    68)    179739.6  Rx         0221  8  60 55 55 15 54 51 71 58 
    69)    179739.8  Rx         0266  8  07 00 0B 2A 0B 00 9F 01 
    70)    179740.0  Rx         0272  8  03 80 61 00 00 00 00 00 
    71)    179740.3  Rx         02F1  8  2B 6A 00 00 00 00 00 00 
    72)    179740.6  Rx         0423  7  00 00 10 00 00 00 00 
    73)    179742.1  Rx         0473  8  00 00 03 00 00 00 00 00 
    74)    179742.3  Rx         0324  8  89 71 8C 40 9D 01 00 00 
    75)    179742.5  Rx         05F3  3  24 E0 21 
    76)    179742.7  Rx         03B3  8  10 80 04 30 80 00 B8 88 
    77)    179743.1  Rx         0132  6  C5 96 8B FF 4D 3F 
    78)    179743.5  Rx         03F6  8  00 05 40 00 36 00 31 31 
    79)    179743.6  Rx         0113  3  01 97 01 
    80)    179743.8  Rx         03F5  8  01 00 BB 38 82 0D 04 00 
    81)    179744.0  Rx         0139  1  00 
    82)    179744.1  Rx         07F4  1  01 
    83)    179744.4  Rx         07FF  8  03 00 08 08 01 01 1F 00 
    84)    179744.6  Rx         0318  8  1A 03 25 15 1E 00 23 B3 
    85)    179744.8  Rx         0458  7  00 00 20 00 00 00 00 
    86)    179745.5  Rx         0282  8  14 75 B2 09 F0 C4 02 24 
    87)    179746.1  Rx         03E2  7  02 00 00 00 00 C0 00 
    88)    179746.5  Rx         0295  8  96 00 A1 FF 00 00 00 07 
    89)    179746.7  Rx         0129  8  7D 2C 8C 5F E4 1F FF 3F 
    90)    179747.0  Rx         0228  8  01 06 18 40 00 40 11 DA 
    91)    179747.2  Rx         0243  8  04 FC 03 F1 79 7C FF FF 
    92)    179747.4  Rx         02C3  8  00 00 00 4C 01 00 80 CB 
    93)    179747.7  Rx         03AE  8  90 3F 00 08 00 00 90 68 
    94)    179747.9  Rx         0788  8  01 00 00 00 FF A1 18 14 
    95)    179748.2  Rx         0118  8  B0 6D 95 00 2A C8 A0 03 
    96)    179748.5  Rx         01D8  8  29 52 C4 3E 00 00 E0 36 
    97)    179748.7  Rx         0201  8  02 00 00 00 00 00 00 00 
    98)    179749.0  Rx         0266  8  07 00 0B 2A 0B 00 9F 01 
    99)    179749.2  Rx         01E5  8  08 2C 04 00 00 00 60 7E 
   100)    179749.4  Rx         0257  8  C7 B7 24 04 1C 60 12 01 
   101)    179750.0  Rx         023E  8  F4 01 3A C0 FA FC 1F 44 
   102)    179750.5  Rx         03F5  8  01 00 BB 38 82 0D 04 00 
   103)    179751.0  Rx         037A  8  D0 00 00 00 00 00 00 00 
   104)    179751.4  Rx         02E1  8  66 80 08 00 75 E4 CA 69 
   105)    179751.6  Rx         01F8  4  00 00 00 00 
   106)    179751.9  Rx         0381  8  06 00 00 00 00 00 00 00 
   107)    179752.3  Rx         022B  8  FF FF FF FF FF FF FF FF 
   108)    179753.1  Rx         0132  6  A9 96 84 FF 4D 3F 
   109)    179753.4  Rx         0261  8  05 A2 41 C9 9A 42 B0 6B 
   110)    179753.7  Rx         02C1  8  0B 1B 98 00 00 00 00 00 
   111)    179753.9  Rx         03C2  8  00 55 55 55 00 00 6A 05 
   112)    179754.2  Rx         03F6  8  00 05 00 00 36 00 31 31 
   113)    179754.4  Rx         040A  8  09 10 00 00 00 00 E0 07 
   114)    179754.6  Rx         0303  8  12 5C 0A D0 26 6F 00 AE 
   115)    179754.9  Rx         0677  8  01 00 00 00 00 00 00 00 
   116)    179755.4  Rx         03A1  8  C1 FF FF 83 3D 00 90 CF 
   117)    179755.7  Rx         03A2  8  01 00 10 00 00 00 00 00 
   118)    179756.5  Rx         0129  8  25 2D 8B 5F E7 1F FF 3F 
   119)    179756.8  Rx         0263  8  04 00 00 00 A0 20 00 00 
   120)    179757.0  Rx         0288  8  01 06 18 40 00 40 21 4A 
   121)    179757.2  Rx         02E8  8  01 01 00 00 06 80 40 B2 
   122)    179757.5  Rx         045A  8  FD 07 00 7F 02 00 00 8B 
   123)    179757.7  Rx         0289  8  00 00 00 00 00 00 00 13 
   124)    179758.0  Rx         0234  8  40 25 03 00 38 00 D4 0F 
   125)    179758.2  Rx         0359  8  4D 7B 48 AC 7E 1C 6D CC 
   126)    179758.4  Rx         01D8  8  29 52 C4 3E 00 00 00 56 
   127)    179758.7  Rx         01E5  8  08 6C 04 00 00 00 00 5E 
   128)    179759.4  Rx         0118  8  91 6E 95 00 2A C8 80 03 
   129)    179759.5  Rx         020E  2  15 05 
   130)    179759.8  Rx         0211  6  A1 16 70 07 00 01 
   131)    179760.0  Rx         0266  8  07 00 0B 2A 0C 00 9F 01 
   132)    179760.1  Rx         0419  1  00 
   133)    179760.4  Rx         0545  8  02 00 07 00 00 00 50 A3 
   134)    179761.3  Rx         02D1  2  FF 01 
   135)    179762.4  Rx         0407  7  10 05 00 00 00 00 00 
   136)    179762.5  Rx         0225  4  55 55 FA 00 
   137)    179762.8  Rx         03AE  8  8E 3F 00 08 00 00 A0 76 
   138)    179763.1  Rx         0132  6  BC 96 87 FF 4A 3F 
   139)    179763.5  Rx         02D7  5  80 61 86 43 0E 
   140)    179765.4  Rx         02E1  8  10 21 04 00 10 00 00 04 
   141)    179766.5  Rx         0129  8  C7 2E 8A 5F E8 1F FF 3F 
   142)    179766.8  Rx         0243  8  00 FC CF 4C 9B 44 0D 29 
   143)    179766.9  Rx         0229  3  44 01 00 
   144)    179767.1  Rx         02A8  8  01 01 00 00 06 80 90 C2 
   145)    179767.3  Rx         0249  4  74 09 07 00 
   146)    179767.5  Rx         0300  8  14 05 00 00 FC 21 82 ED 
   147)    179767.6  Rx         0311  2  FF 03 
   148)    179767.9  Rx         0332  6  20 0A 89 87 88 00 
   149)    179768.1  Rx         0207  8  00 04 0C 01 05 00 00 00 
   150)    179768.3  Rx         0118  8  02 6F 95 00 2A C8 F0 03 
   151)    179768.6  Rx         03D2  8  D0 6B 2E 03 C4 76 43 03 
   152)    179768.8  Rx         01D8  8  29 52 04 3F 00 00 20 B7 
   153)    179769.0  Rx         0283  6  02 04 00 00 41 00 
   154)    179769.3  Rx         0266  8  08 00 0C 2A 0C 00 9F 01 
   155)    179769.5  Rx         0261  8  00 10 1D 00 9D 4A C0 02 
   156)    179769.7  Rx         01E5  8  08 6C 04 00 00 00 20 7E 
   157)    179770.0  Rx         03F2  8  05 4D 10 5E 00 71 7C 04 
   158)    179770.2  Rx         0257  8  D8 C8 24 04 1C 60 12 01 
   159)    179770.5  Rx         02C4  8  15 00 00 04 00 40 FF 00 
   160)    179770.7  Rx         0448  6  20 00 10 10 00 00 
   161)    179770.9  Rx         0204  8  01 00 00 FF 00 00 00 00 
   162)    179771.1  Rx         0452  3  18 81 00 
   163)    179771.3  Rx         0264  6  2D 00 00 00 E0 01 
   164)    179771.5  Rx         0224  8  04 08 00 C0 DB 00 10 08 
   165)    179771.7  Rx         02B4  6  89 05 1B 0F 3F 01 
   166)    179772.0  Rx         031F  8  77 46 70 46 72 44 78 46 
   167)    179772.2  Rx         039A  8  30 17 FF 96 FF FD FD 61 
   168)    179772.4  Rx         0441  8  68 01 B6 C3 58 00 25 C8 
   169)    179772.6  Rx         0421  7  F0 15 00 00 00 D0 48 
   170)    179772.9  Rx         0472  8  67 00 00 00 00 E0 FF 7F 
   171)    179773.1  Rx         0492  7  F3 02 FF 0F 28 00 00 
   172)    179773.3  Rx         0132  6  B1 96 80 FF 59 3F 
   173)    179773.5  Rx         0201  8  03 00 00 00 00 00 00 00 
   174)    179773.7  Rx         02BF  7  00 00 00 00 00 00 01 
   175)    179774.0  Rx         02C1  8  04 00 00 00 00 00 00 00 
   176)    179774.3  Rx         0320  8  00 00 00 00 00 00 00 00 
   177)    179774.5  Rx         0372  8  00 1E 80 06 D2 10 2C 23 
   178)    179774.7  Rx         039D  5  48 5F 21 28 00 
   179)    179774.9  Rx         03C0  8  03 00 00 00 00 00 00 00 
   180)    179775.2  Rx         03F6  8  00 05 00 00 36 00 31 31 
   181)    179775.4  Rx         0401  8  00 2A 54 9D 56 9D 54 9D 
   182)    179775.6  Rx         0262  8  0B 00 A0 F7 00 30 13 12 
   183)    179775.8  Rx         0420  7  28 01 40 4B 00 00 02 
   184)    179776.1  Rx         0443  6  73 08 FF 03 00 00 
   185)    179776.3  Rx         04E2  8  04 64 40 06 16 50 01 00 
   186)    179776.6  Rx         054F  8  00 00 00 00 00 00 00 00 
   187)    179776.8  Rx         0263  8  E0 43 F6 6A A6 4F 5F 1F 
   188)    179777.0  Rx         0129  8  5C 2F 88 5F E9 1F FF 3F 
   189)    179777.2  Rx         0428  6  20 00 00 10 00 00 
   190)    179777.4  Rx         06A2  5  00 00 00 00 00 
   191)    179778.4  Rx         01D8  8  29 52 44 3F 00 00 40 17 
   192)    179778.7  Rx         01FB  8  05 02 00 00 00 00 00 00 
   193)    179778.9  Rx         01E5  8  08 6C 04 00 00 00 40 9E 
   194)    179779.3  Rx         0118  8  34 60 95 00 2A C8 30 04 
   195)    179779.6  Rx         0266  8  07 00 0C 2A 0B 00 9F 01 
   196)    179779.8  Rx         02E1  8  39 ED 39 B5 0D 00 00 00 
   197)    179780.1  Rx         0719  8  0D 00 00 00 00 00 00 00 
   198)    179780.6  Rx         0103  8  22 B3 88 04 72 3E 21 32 
   199)    179781.5  Rx         0552  8  00 00 00 00 00 00 D0 27 
   200)    179783.1  Rx         0132  6  BB 96 81 FF 32 3F 
   201)    179785.4  Rx         0261  8  19 00 3A 00 1A 4A DA BF 
   202)    179786.0  Rx         02F9  8  B0 FB 07 20 00 00 00 00 
   203)    179786.5  Rx         0129  8  EB 20 87 5F E8 1F FF 3F 
   204)    179786.8  Rx         0123  8  01 00 00 00 00 3F 00 00 
   205)    179787.0  Rx         0243  8  01 FC 41 51 41 00 64 66 
   206)    179787.5  Rx         0422  6  72 06 00 02 00 00 
   207)    179788.2  Rx         0118  8  45 61 95 00 2A C8 40 04 
   208)    179788.5  Rx         0266  8  07 00 0C 2A 0B 00 9F 01 
   209)    179788.7  Rx         01D8  8  29 52 04 3F 00 00 60 F7 
   210)    179788.9  Rx         031A  8  03 00 00 00 00 00 E0 00 
   211)    179789.2  Rx         0257  8  E1 C9 24 04 1C 68 12 01 
   212)    179789.4  Rx         01E5  8  08 6C 04 00 00 00 60 BE 
   213)    179789.7  Rx         0108  8  31 58 10 4A 08 47 02 25 
   214)    179789.8  Rx         0126  5  66 B0 1D 44 9E 
   215)    179790.0  Rx         0221  8  61 05 55 55 01 02 80 B6 
   216)    179790.2  Rx         0128  4  00 00 E4 0A 
   217)    179790.5  Rx         01D6  8  00 08 04 00 CA C8 FE 07 
   218)    179790.7  Rx         023E  8  F4 01 3A C0 FA FC 2F 54 
   219)    179790.9  Rx         0268  5  29 0B 79 01 A7 
   220)    179791.1  Rx         0247  8  3F 0F FF 0E 00 FA 01 00 
   221)    179791.4  Rx         0227  8  B7 03 14 00 42 00 00 81 
   222)    179791.6  Rx         0279  8  B0 D8 0C 01 04 06 65 02 
   223)    179791.8  Rx         02B6  3  00 B0 01 
   224)    179792.0  Rx         0381  8  07 00 00 00 00 00 00 00 
   225)    179792.2  Rx         0333  5  84 30 26 07 00 
   226)    179792.4  Rx         0395  8  01 0F 10 46 3A 3B 08 7D 
   227)    179792.7  Rx         0334  8  BF 3F 14 80 FC 07 E4 B0 
   228)    179792.9  Rx         0397  8  00 00 00 D8 1D 00 00 00 
   229)    179793.1  Rx         03A2  8  72 A8 FF FF 03 00 00 00 
   230)    179793.3  Rx         0132  6  B2 96 81 FF 4F 3F 
   231)    179793.5  Rx         0287  8  37 37 37 38 03 03 01 02 
   232)    179793.8  Rx         02C1  8  68 30 FE 00 4C 8E 02 00 
   233)    179794.0  Rx         02C2  8  55 5B A9 B6 82 C1 12 AA 
   234)    179794.3  Rx         02E1  8  02 00 00 00 FF 00 02 00 
   235)    179794.5  Rx         03A3  8  12 D0 00 00 98 0B FC 01 
   236)    179794.8  Rx         03F9  8  06 00 00 00 00 00 00 00 
   237)    179795.0  Rx         03FD  8  00 00 00 3C 20 01 03 80 
   238)    179795.3  Rx         0401  8  01 2A 58 9D 58 9D 5E 9D 
   239)    179795.5  Rx         0545  8  B0 03 53 10 A3 2E 6A 9B 
   240)    179795.7  Rx         0281  6  15 00 FF 1F 00 01 
   241)    179795.9  Rx         0677  8  02 00 00 00 00 00 00 00 
   242)    179796.2  Rx         07AA  8  09 90 06 90 06 01 00 00 
   243)    179796.5  Rx         0129  8  F2 21 85 5F E7 1F FF 3F 
   244)    179796.7  Rx         0263  8  D1 5B EE 72 9E 4F 5F 1F 
   245)    179797.0  Rx         02B3  8  10 00 00 00 00 01 00 00 
   246)    179797.8  Rx         0295  8  C8 00 AB FF 00 00 00 08 
   247)    179798.2  Rx         0409  1  00 
   248)    179798.5  Rx         01D8  8  29 52 04 3F 00 00 80 17 
   249)    179798.7  Rx         01E5  8  08 6C 04 00 00 00 00 5E 
   250)    179798.9  Rx         0201  8  00 3A 3B 19 00 E4 FF 00 
   251)    179799.2  Rx         0393  8  03 80 61 00 00 00 00 00 
   252)    179799.4  Rx         0118  8  66 62 95 00 2A C8 60 04 
   253)    179799.6  Rx         07D5  8  2B 00 70 F6 00 00 00 00 
   254)    179799.9  Rx         0266  8  07 00 0C 2A 0B 00 9F 01 
   255)    179800.1  Rx         07D5  8  2C 00 3E 00 00 00 00 00 
   256)    179800.4  Rx         0339  8  01 F1 FE 00 80 03 80 0C 
   257)    179800.6  Rx         07D5  8  32 00 00 00 00 00 00 00 
   258)    179800.9  Rx         07D7  8  32 0B 00 00 00 00 00 00 
   259)    179801.4  Rx         0261  8  02 2C 50 02 80 5C E1 6B 
   260)    179802.3  Rx         022B  8  FF FF FF FF FF FF FF FF 
   261)    179802.5  Rx         022A  4  00 00 39 18 
   262)    179802.7  Rx         0212  8  59 04 00 00 81 FF 77 31 
   263)    179802.9  Rx         0252  8  D6 18 4D 71 00 FC 0F 00 
   264)    179803.1  Rx         0132  6  B3 96 7D FF 28 3F 
   265)    179803.4  Rx         0292  8  14 23 1C F2 C7 01 00 00 
   266)    179803.6  Rx         02D2  8  39 2F B5 4E 3D 06 9E 1E 
   267)    179803.8  Rx         02E2  8  02 42 39 59 49 49 09 00 
   268)    179803.9  Rx         02F2  2  12 02 
   269)    179804.2  Rx         0302  8  12 5C 0A D0 26 6F 00 AE 
   270)    179804.3  Rx         035F  1  00 
   271)    179804.5  Rx         03AE  8  8B 3F 00 08 00 00 B1 84 
   272)    179804.8  Rx         020C  8  2A 78 39 1E 39 01 30 10 
   273)    179805.0  Rx         03C2  8  29 55 00 00 00 00 00 00 
   274)    179805.2  Rx         0400  7  FF 40 F8 BE F1 0B 01 
   275)    179805.5  Rx         042E  8  00 E0 BF FF FE EF BF FF 
   276)    179805.7  Rx         03A1  8  88 4C 0C CA 00 34 A2 40 
   277)    179805.9  Rx         042F  7  C6 B8 8E 02 FA 00 FF 
   278)    179806.5  Rx         0129  8  A8 22 83 5F E5 1F FF 3F 
   279)    179806.7  Rx         0243  8  02 FC 13 0F 05 C5 00 00 
   280)    179807.0  Rx         045A  8  A4 46 C5 C8 5F 23 51 41 
   281)    179807.2  Rx         01F9  8  00 00 00 00 00 00 00 00 
   282)    179807.5  Rx         02E1  8  03 6D 66 02 1B 8C 00 00 
   283)    179808.0  Rx         0234  8  2D E0 02 FA E8 03 E0 6F 
   284)    179808.3  Rx         0118  8  97 63 95 00 2A C8 90 04 
   285)    179808.4  Rx         041D  1  14 
   286)    179808.6  Rx         01D8  8  29 50 44 3F 00 00 A0 75 
   287)    179808.9  Rx         021D  8  04 00 35 00 00 00 00 00 
   288)    179809.1  Rx         0266  8  07 00 0B 2A 0C 00 9F 01 
   289)    179809.3  Rx         025D  8  14 41 01 2A 04 F0 00 00 
   290)    179809.6  Rx         01E5  8  08 6C 04 00 00 00 20 7E 
   291)    179809.7  Rx         01FA  3  1A C0 01 
   292)    179810.0  Rx         0257  8  FA DA 24 04 1C 70 12 01 
   293)    179810.6  Rx         04E3  8  04 18 80 01 08 A0 00 00 
   294)    179810.8  Rx         078A  8  01 00 05 00 9D 0D 0B 00 
   295)    179811.1  Rx         0682  8  00 00 00 40 04 04 E0 E5 
   296)    179813.3  Rx         039D  5  39 50 21 28 00 
   297)    179813.4  Rx         0132  6  B9 96 85 FF 3A 3F 
   298)    179813.7  Rx         02C1  8  21 6B 18 64 02 00 00 00 
   299)    179813.9  Rx         0401  8  02 2A 58 9D 5C 9D 62 9D 
   300)    179814.1  Rx         0119  4  00 00 00 00 
   301)    179815.4  Rx         0242  3  55 55 86 
   302)    179816.5  Rx         0129  8  E7 23 81 5F E3 1F FF 3F 
   303)    179816.8  Rx         0263  8  02 00 E0 07 10 3D 3F 21 
   304)    179816.9  Rx         0249  4  C8 0A 07 00 
   305)    179817.1  Rx         0343  8  00 91 3C 6E 9F 00 00 00 
   306)    179817.4  Rx         0307  8  00 00 00 00 00 00 00 3B 
   307)    179817.6  Rx         025B  8  D3 80 00 05 CA 8C 20 29 
   308)    179817.9  Rx         0261  8  CB 50 0A 00 00 40 F5 88 
   309)    179818.1  Rx         0340  8  09 00 00 00 00 00 00 00 
   310)    179818.5  Rx         01D8  8  29 50 84 3F 00 00 C0 D5 
   311)    179818.7  Rx         01E5  8  08 6C 04 00 00 00 40 9E 
   312)    179819.3  Rx         0118  8  88 64 95 00 2A C8 80 04 
   313)    179819.6  Rx         0266  8  07 00 0B 2A 0C 00 9F 01 
   314)    179821.0  Rx         0439  8  00 00 00 00 00 18 63 02 
   315)    179821.5  Rx         02E1  8  FC 1F 1F 4A A0 19 0A 00 
   316)    179821.7  Rx         0360  8  04 00 00 00 00 00 00 00 
   317)    179821.9  Rx         03A2  8  E0 25 72 FE 04 80 46 6F 
   318)    179822.1  Rx         0441  8  8E 85 89 00 32 00 28 5F 
   319)    179822.6  Rx         03C3  8  55 55 55 01 00 00 00 00 
   320)    179823.1  Rx         0132  6  AD 96 80 FF 48 3F 
   321)    179823.5  Rx         0201  8  51 28 98 00 00 00 00 00 
   322)    179824.9  Rx         06C8  8  58 ED 00 11 0A A0 00 00 
   323)    179825.5  Rx         0545  8  01 00 00 00 00 10 70 CB 
   324)    179826.5  Rx         0129  8  75 24 7F 5F E1 1F FF 3F 
   325)    179826.7  Rx         0243  8  03 00 20 00 22 58 13 00 
   326)    179827.0  Rx         03E8  8  03 00 00 00 00 00 00 00 
   327)    179827.5  Rx         0381  8  08 00 00 00 00 00 00 00 
   328)    179827.7  Rx         0102  8  22 B3 88 02 D2 46 A1 09 
   329)    179827.9  Rx         03AE  8  88 3F 00 08 00 00 C1 91 
   330)    179828.3  Rx         0118  8  C9 65 95 00 2A C8 C0 04 
   331)    179828.5  Rx         0241  7  31 32 54 8C 0C 55 00 
   332)    179828.7  Rx         01D8  8  29 4E 04 40 00 00 E0 74 
   333)    179829.0  Rx         01FB  8  00 00 00 00 00 00 00 00 
   334)    179829.2  Rx         0266  8  07 00 0B 2A 0C 00 9F 01 
   335)    179829.5  Rx         0553  8  00 00 00 00 00 00 D0 28 
   336)    179829.7  Rx         01E5  8  08 6C 04 00 00 00 60 BE 
   337)    179829.9  Rx         0257  8  FB DB 24 04 1C 70 12 01 
   338)    179830.2  Rx         023E  8  F4 01 3A C0 FA FC 3F 64 
   339)    179830.4  Rx         03DB  8  0A 24 1D 21 1D 00 00 00 
   340)    179830.7  Rx         043B  8  01 7F 00 FF 00 00 00 00 
   341)    179830.9  Rx         0719  8  33 00 10 00 00 00 00 00 
   342)    179833.1  Rx         0132  6  BB 96 83 FF 2E 3F 
   343)    179833.3  Rx         0372  8  01 78 13 03 40 00 2C 01 
   344)    179833.6  Rx         0122  8  01 00 00 00 00 3F 00 00 
   345)    179833.8  Rx         0261  8  C4 FE 27 50 00 40 04 AB 
   346)    179834.0  Rx         02C1  8  02 19 06 00 00 D0 92 09 
   347)    179834.3  Rx         0401  8  03 2A 58 9D 4E 9D 52 9D 
   348)    179834.5  Rx         0677  8  03 00 00 00 00 00 00 00 
   349)    179834.7  Rx         0383  8  B1 18 1A 00 ED 40 C2 10 
   350)    179835.4  Rx         02E1  8  05 00 00 00 00 40 26 00 
   351)    179836.5  Rx         0129  8  04 25 7C 5F DD 1F FF 3F 
   352)    179836.8  Rx         0263  8  03 00 00 00 00 00 00 00 
   353)    179837.0  Rx         03C8  8  06 00 00 00 00 00 00 00 
   354)    179837.2  Rx         0379  8  05 00 5C 68 80 01 00 00 
   355)    179837.5  Rx         07A8  8  01 00 00 00 FF A1 08 14 
   356)    179837.8  Rx         03AE  8  82 3F 00 08 00 00 D1 9B 
   357)    179838.4  Rx         01D8  8  29 4E 04 40 00 00 00 94 
   358)    179838.7  Rx         01E5  8  08 6C 04 00 00 00 00 5E 
   359)    179839.4  Rx         0118  8  BA 66 95 00 2A C8 B0 04 
   360)    179839.6  Rx         0221  8  60 55 55 15 54 51 91 78 
   361)    179839.8  Rx         0266  8  08 00 0B 2A 0C 00 9F 01 
   362)    179840.1  Rx         0272  8  08 00 0F 39 08 C0 0E 10 
   363)    179840.3  Rx         02F1  8  0C 0D B1 D8 0E 8D 2F 31 
   364)    179840.6  Rx         0423  7  00 00 10 00 00 00 00 
   365)    179841.7  Rx         03BB  2  35 0F 
   366)    179841.9  Rx         02F3  8  8E 0E 0B 04 00 20 00 02 
   367)    179842.2  Rx         033A  8  BC A8 B3 5C FE FF 57 61 
   368)    179842.4  Rx         0273  8  89 E1 10 40 BB 02 30 01 
   369)    179843.1  Rx         0132  6  AF 96 85 FF 4F 3F 
   370)    179843.3  Rx         03FD  8  01 00 02 00 00 18 53 80 
   371)    179843.5  Rx         0113  3  01 97 01 
   372)    179843.6  Rx         07F4  1  01 
   373)    179843.9  Rx         07FF  8  04 87 5E F7 59 00 01 00 
   374)    179844.0  Rx         0139  1  00 
   375)    179844.2  Rx         0318  8  1A 03 25 15 1E 00 25 B5 
   376)    179844.4  Rx         0458  7  00 00 20 00 00 00 00 
   377)    179845.5  Rx         0282  8  14 75 02 0A F0 C4 02 24 
   378)    179846.5  Rx         0129  8  61 26 79 5F D9 1F FF 3F 
   379)    179846.8  Rx         0228  8  01 06 18 40 00 40 21 EA 
   380)    179847.0  Rx         0243  8  04 FC 03 F1 79 7C FF FF 
   381)    179847.2  Rx         02C3  8  55 5B A9 06 80 C1 12 AA 
   382)    179847.4  Rx         0788  8  02 40 C5 07 00 03 00 00 
   383)    179848.0  Rx         0295  8  2B 48 00 00 00 00 00 09 
   384)    179848.2  Rx         0118  8  AB 67 95 00 2A C8 A0 04 
   385)    179848.5  Rx         0201  8  02 00 00 00 00 00 00 00 
   386)    179848.8  Rx         01D8  8  29 4C 84 40 00 00 20 32 
   387)    179849.0  Rx         0266  8  07 00 0C 2A 0C 00 9F 01 
   388)    179849.2  Rx         01E5  8  08 6C 04 00 00 00 20 7E 
   389)    179849.4  Rx         0257  8  14 EC 24 04 1C 78 12 01 
   390)    179849.7  Rx         0261  8  05 A2 41 C9 9A 42 10 CB 
   391)    179849.9  Rx         02E1  8  66 80 08 00 75 E4 CA 69 
   392)    179850.2  Rx         0709  8  1B 00 00 00 00 00 00 00 
   393)    179850.5  Rx         03F5  8  01 00 BB 38 82 0D 04 00 
   394)    179851.1  Rx         037A  8  C1 00 00 00 00 00 00 00 
   395)    179851.4  Rx         01F8  4  00 00 00 00 
   396)    179852.3  Rx         022B  8  FF FF FF FF FF FF FF FF 
   397)    179853.1  Rx         0132  6  C4 96 7E FF 3C 3F 
   398)    179853.3  Rx         0401  8  04 2A 66 9D 61 9D 4E 9D 
   399)    179853.5  Rx         02C1  8  0B 1B 98 00 00 00 00 00 
   400)    179853.7  Rx         039D  5  3A 51 21 28 00 
   401)    179854.0  Rx         03C2  8  00 55 55 55 00 00 6A 05 
   402)    179854.2  Rx         03E2  7  02 00 00 00 00 C0 00 
   403)    179854.5  Rx         03A2  8  01 00 10 00 00 00 00 00 
   404)    179854.7  Rx         02E3  7  12 00 00 56 02 0B 00 
   405)    179855.1  Rx         0387  8  65 65 62 5D 71 68 15 40 
   406)    179855.5  Rx         03A1  8  C1 FF FF 9B 3D 00 B0 07 
   407)    179856.5  Rx         0129  8  34 27 75 5F D3 1F FF 3F 
   408)    179856.7  Rx         0263  8  04 00 00 00 A0 20 00 00 
   409)    179857.0  Rx         0288  8  01 06 18 40 00 40 31 5A 
   410)    179857.2  Rx         02B3  8  00 7E 8E 8C 7A 00 00 00 
   411)    179857.5  Rx         02E8  8  01 01 00 00 06 80 50 C2 
   412)    179857.7  Rx         0289  8  00 00 00 00 00 00 00 13 
   413)    179858.0  Rx         0234  8  40 25 03 00 38 00 F4 2F 
   414)    179858.2  Rx         0359  8  80 3F 00 00 00 00 00 00 
   415)    179858.3  Rx         0419  1  00 
   416)    179858.6  Rx         01D8  8  29 4C 84 40 00 00 40 52 
   417)    179858.8  Rx         01E5  8  08 6C 04 00 00 00 40 9E 
   418)    179859.0  Rx         045A  8  FD 07 00 7F 02 00 00 8B 
   419)    179859.3  Rx         0545  8  02 00 07 00 00 00 80 D3 
   420)    179859.5  Rx         0118  8  AC 68 95 00 2A C8 A0 04 
   421)    179859.6  Rx         020E  2  16 06 
   422)    179859.9  Rx         0211  6  A2 17 70 07 00 01 
   423)    179860.1  Rx         0266  8  08 00 0C 2A 0C 00 9F 01 
   424)    179861.3  Rx         02D1  2  FF 01 
   425)    179862.5  Rx         0225  4  55 55 FA 00 
   426)    179863.1  Rx         0132  6  AF 96 82 FF 2E 3F 
   427)    179863.4  Rx         02E1  8  10 21 04 00 10 00 00 04 
   428)    179863.6  Rx         02D7  5  80 61 86 43 0E 
   429)    179865.4  Rx         0261  8  00 10 1D 00 9D 4A 20 62 
   430)    179865.7  Rx         0381  8  09 00 00 00 00 00 00 00 
   431)    179866.5  Rx         0129  8  27 28 71 5F CE 1F FF 3F 
   432)    179866.7  Rx         0243  8  00 FC CF 4C 9B 44 0D 29 
   433)    179866.9  Rx         0229  3  52 02 00 
   434)    179867.1  Rx         02A8  8  01 01 00 00 06 80 A0 D2 
   435)    179867.4  Rx         0207  8  00 02 06 02 04 00 00 00 
   436)    179867.5  Rx         0249  4  02 0B 07 00 
   437)    179867.7  Rx         0448  6  20 00 10 10 00 00 
   438)    179868.0  Rx         054F  8  00 00 00 00 00 00 00 00 
   439)    179868.2  Rx         06A2  5  00 00 00 00 00 
   440)    179868.4  Rx         0118  8  3D 69 95 00 2A C8 30 04 
   441)    179868.7  Rx         01D8  8  29 4C C4 40 00 00 60 B2 
   442)    179868.9  Rx         0266  8  08 00 0C 2A 0C 00 9F 01 
   443)    179869.2  Rx         01E5  8  08 6C 04 00 00 00 60 BE 
   444)    179869.4  Rx         0257  8  35 FD 24 04 24 80 12 01 
   445)    179869.6  Rx         0283  6  02 04 00 00 41 00 
   446)    179869.8  Rx         04E2  8  45 05 EF 01 01 34 00 00 
   447)    179870.1  Rx         02C4  8  16 CF E5 08 00 00 00 01 
   448)    179870.3  Rx         023E  8  F4 01 3A C0 FA FC 4F 74 
   449)    179870.7  Rx         0204  8  01 00 00 FF 00 00 00 00 
   450)    179870.9  Rx         0264  6  2C 00 00 00 E0 01 
   451)    179871.2  Rx         0224  8  04 08 00 C0 DB 00 10 08 
   452)    179871.4  Rx         02B4  6  8A 05 1C 0F 41 01 
   453)    179871.6  Rx         0441  8  66 01 B6 C3 58 00 2D CE 
   454)    179872.1  Rx         039A  8  FD FD FD FD FD 01 00 02 
   455)    179872.4  Rx         0421  7  F0 15 00 00 00 D0 48 
   456)    179873.1  Rx         0132  6  A6 96 81 FF 4F 3F 
   457)    179873.3  Rx         0401  8  05 2A 64 9D 60 9D 66 9D 
   458)    179873.6  Rx         0201  8  03 00 00 00 00 00 00 00 
   459)    179873.9  Rx         02C1  8  04 00 00 00 00 00 00 00 
   460)    179874.1  Rx         0677  8  04 00 00 00 00 00 00 00 
   461)    179874.3  Rx         0718  7  02 00 00 00 00 00 00 
   462)    179874.5  Rx         0724  3  02 00 64 
   463)    179874.7  Rx         03C0  8  04 00 00 00 00 00 00 00 
   464)    179875.0  Rx         0420  7  28 01 40 4B 00 80 02 
   465)    179875.2  Rx         07AA  8  0A E3 06 E3 06 00 5B 00 
   466)    179875.5  Rx         0262  8  0B 00 A0 F7 00 30 13 12 
   467)    179876.5  Rx         0129  8  0F 29 6C 5F C8 1F FF 3F 
   468)    179876.8  Rx         0263  8  E0 43 F6 6A A6 4F 5F 1F 
   469)    179877.0  Rx         0428  6  20 00 00 10 00 00 
   470)    179877.5  Rx         02E1  8  39 ED 39 B5 0D 00 00 00 
   471)    179877.8  Rx         03AE  8  7C 3F 00 08 00 00 E1 A5 
   472)    179878.5  Rx         01D8  8  29 4C C4 40 00 00 80 D2 
   473)    179878.7  Rx         01E5  8  08 6C 04 00 00 00 00 5E 
   474)    179878.9  Rx         01FB  8  05 02 00 00 00 00 00 00 
   475)    179879.4  Rx         0118  8  DD 6A 95 00 2A C8 D0 03 
   476)    179879.6  Rx         0266  8  08 00 0C 2A 0C 00 9F 01 
   477)    179880.1  Rx         0719  8  03 00 00 00 00 00 00 00 
   478)    179880.6  Rx         0103  8  22 B3 88 04 72 3E 21 32 
   479)    179881.4  Rx         0261  8  19 00 1D 00 1A 4A 3A 02 
   480)    179881.7  Rx         0552  8  00 00 00 00 00 00 E0 37 
   481)    179883.1  Rx         0132  6  B3 96 7D FF 27 3F 
   482)    179886.1  Rx         02F9  8  B0 FB 07 28 00 00 00 00 
   483)    179886.5  Rx         0129  8  FF 2A 68 5F C2 1F FF 3F 
   484)    179886.7  Rx         0123  8  00 00 13 12 D2 00 00 00 
   485)    179887.0  Rx         0243  8  01 FC 41 51 40 00 64 66 
   486)    179887.5  Rx         0422  6  72 06 00 02 00 00 
   487)    179887.8  Rx         03A2  8  92 A8 FF 7F 03 00 00 00 
   488)    179888.0  Rx         03AE  8  70 3F 00 08 00 00 F1 A9 
   489)    179888.3  Rx         0118  8  6E 6B 95 00 2A C8 60 03 
   490)    179888.5  Rx         01D8  8  29 4A C4 40 00 00 A0 F0 
   491)    179888.7  Rx         0266  8  08 00 0C 2A 0C 00 9F 01 
   492)    179889.0  Rx         01E5  8  08 6C 04 00 00 00 20 7E 
   493)    179889.3  Rx         0257  8  36 FE 24 04 24 80 12 01 
   494)    179889.5  Rx         0221  8  61 05 55 55 01 02 A0 D6 
   495)    179889.7  Rx         0108  8  73 69 10 72 08 50 02 25 
   496)    179889.9  Rx         0126  5  6C B0 1D 4C AC 
   497)    179890.1  Rx         0128  4  00 00 E4 0A 
   498)    179890.3  Rx         01D6  8  00 08 04 00 CA C8 00 08 
   499)    179890.5  Rx         0268  5  2A 0B 79 01 A7 
   500)    179890.7  Rx         0279  8  B1 D9 0C 01 04 06 65 02 
   501)    179891.0  Rx         0247  8  3F 0F FF 0D 00 FD 01 00 
   502)    179891.3  Rx         0227  8  B8 03 14 00 42 00 00 81 
   503)    179891.4  Rx         02B6  3  00 B0 01 
   504)    179891.6  Rx         02E1  8  02 00 00 00 FF 00 02 00 
   505)    179891.9  Rx         0294  8  14 8D 00 00 00 00 00 00 
   506)    179892.2  Rx         0287  8  37 37 37 38 04 03 00 01 
   507)    179892.4  Rx         0395  8  01 0F 10 46 39 3B 08 7D 
   508)    179892.6  Rx         0545  8  B0 03 58 50 A3 31 9A 13 
   509)    179892.8  Rx         0397  8  00 00 00 D8 1D 00 00 00 
   510)    179893.1  Rx         03A3  8  14 C0 00 00 98 0B FC 01 
   511)    179893.3  Rx         0132  6  B2 96 84 FF 4F 3F 
   512)    179893.5  Rx         02C1  8  68 30 FE 00 4C 8E 02 00 
   513)    179893.7  Rx         02C2  8  20 40 C0 4B 01 00 40 CB 
   514)    179894.0  Rx         0372  8  02 2F C1 3D 90 01 00 53 
   515)    179894.2  Rx         039D  5  3B 52 21 28 00 
   516)    179894.4  Rx         03F5  8  00 00 BB 38 82 0D 00 00 
   517)    179894.7  Rx         03F9  8  07 00 00 00 00 00 00 00 
   518)    179894.9  Rx         03FD  8  02 00 00 00 00 00 00 80 
   519)    179895.1  Rx         0401  8  06 2A 66 9D 60 9D 63 9D 
   520)    179895.4  Rx         0281  6  15 00 FF 1F 00 01 
   521)    179896.5  Rx         0129  8  65 2B 63 5F BC 1F FF 3F 
   522)    179896.7  Rx         0263  8  D1 5B EE 72 9E 4F 5F 1F 
   523)    179897.4  Rx         0261  8  02 2C 50 02 80 5C 41 CB 
   524)    179897.6  Rx         0409  1  00 
   525)    179898.4  Rx         01D8  8  29 4A C4 40 00 00 C0 10 
   526)    179898.7  Rx         01E5  8  08 6C 04 00 00 00 40 9E 
   527)    179898.9  Rx         0201  8  00 3B 3B 19 00 E4 FF 00 
   528)    179899.2  Rx         0393  8  08 00 0E 39 08 C0 0E 10 
   529)    179899.4  Rx         0118  8  30 6C 95 00 2B C8 20 03 
   530)    179899.6  Rx         07D5  8  2B 00 70 F6 00 00 00 00 
   531)    179899.9  Rx         0266  8  08 00 0C 2A 0C 00 9F 01 
   532)    179900.1  Rx         07D5  8  2C 00 3E 00 00 00 00 00 
   533)    179900.3  Rx         0339  8  01 F1 FE 00 80 03 80 0C 
   534)    179900.6  Rx         07D5  8  32 00 00 00 00 00 00 00 
   535)    179900.9  Rx         07D7  8  32 0B 00 00 00 00 00 00 
   536)    179901.5  Rx         02D2  8  3A 2F B5 4E 3D 06 9E 1E 
   537)    179901.7  Rx         0212  8  59 04 00 00 81 FF 77 31 
   538)    179901.9  Rx         0252  8  D6 18 4D 71 00 FC 0F 00 
   539)    179902.2  Rx         0292  8  14 23 1C F2 C7 01 00 00 
   540)    179902.4  Rx         022B  8  FF FF FF FF FF FF FF FF 
   541)    179902.6  Rx         022A  4  00 00 39 18 
   542)    179902.7  Rx         02F2  2  12 02 
   543)    179903.0  Rx         0295  8  96 00 A1 FF 00 00 00 0A 
   544)    179903.2  Rx         0312  8  F0 E4 66 04 4B 6D 25 14 
   545)    179903.4  Rx         0132  6  B2 96 7C FF 30 3F 
   546)    179903.6  Rx         0352  8  00 00 74 0B EA 08 E3 08 
   547)    179903.8  Rx         0381  8  0A 00 00 00 00 00 00 00 
   548)    179904.1  Rx         0392  8  00 0B 00 00 00 00 00 00 
   549)    179904.4  Rx         03A8  8  03 00 00 00 00 00 00 00 
   550)    179904.6  Rx         03B2  8  28 9B 3F 2E 00 5C 98 02 
   551)    179904.8  Rx         020C  8  26 78 39 1E 39 01 30 10 
   552)    179905.1  Rx         03C2  8  29 55 00 00 00 00 00 00 
   553)    179905.3  Rx         03E9  8  F0 88 02 00 00 00 20 86 
   554)    179905.6  Rx         02E1  8  03 6D 66 02 1B 8C 00 00 
   555)    179905.8  Rx         03A1  8  88 4C 0C CA 00 34 C2 60 
   556)    179906.0  Rx         0400  7  FF 40 F8 BE F1 0B 01 
   557)    179906.2  Rx         0712  8  00 2A AD 0A F2 0A 25 0B 
   558)    179906.5  Rx         0129  8  AB 2C 5F 5F B7 1F FF 3F 
   559)    179906.7  Rx         0243  8  02 FC 2B 0F 05 C5 00 00 
   560)    179907.0  Rx         045A  8  A4 46 C5 C8 5F 23 51 41 
   561)    179907.2  Rx         01F9  8  00 00 00 00 00 00 00 00 
   562)    179907.5  Rx         078A  8  01 00 06 00 02 00 00 00 
   563)    179907.9  Rx         0234  8  2A E0 02 FA E8 03 00 8C 
   564)    179908.3  Rx         0118  8  91 6D 95 00 2B C8 80 03 
   565)    179908.5  Rx         01D8  8  29 4A 84 40 00 00 E0 F0 
   566)    179908.8  Rx         031E  8  00 00 00 00 00 00 00 00 
   567)    179909.0  Rx         0266  8  07 00 0B 2A 0B 00 9F 01 
   568)    179909.3  Rx         01E5  8  08 6C 04 00 00 00 60 BE 
   569)    179909.5  Rx         021D  8  04 00 35 00 00 00 00 00 
   570)    179909.7  Rx         01FA  3  1A C0 01 
   571)    179909.9  Rx         0257  8  50 0F 25 04 24 88 12 01 
   572)    179910.0  Rx         041D  1  14 
   573)    179910.2  Rx         025D  8  14 41 01 2A 04 F0 00 00 
   574)    179910.5  Rx         075D  8  05 00 00 00 00 00 00 00 
   575)    179910.7  Rx         023E  8  F4 01 3A C0 FA FC 5F 84 
   576)    179910.9  Rx         04E3  8  7D 04 36 B1 00 0A 00 00 
   577)    179911.4  Rx         0682  8  00 00 00 40 04 04 F0 F5 
   578)    179913.0  Rx         03AE  8  70 3F 00 08 00 00 00 B8 
   579)    179913.2  Rx         0132  6  A6 96 83 FF 20 3F 
   580)    179913.4  Rx         0261  8  CB 50 0A 00 00 40 55 E8 
   581)    179913.7  Rx         02C1  8  21 6B 18 64 02 00 00 00 
   582)    179913.9  Rx         0401  8  07 2A 5E 9D 58 9D 63 9D 
   583)    179914.1  Rx         0119  4  00 00 00 00 
   584)    179914.3  Rx         0677  8  00 00 00 00 00 00 00 00 
   585)    179915.4  Rx         0242  3  55 55 86 
   586)    179916.5  Rx         0129  8  AB 2D 5A 5F B2 1F FF 3F 
   587)    179916.7  Rx         0263  8  02 00 E0 07 10 3D 3F 21 
   588)    179916.9  Rx         0249  4  10 0C 07 00 
   589)    179917.1  Rx         02B3  8  01 93 8D 88 81 91 8A 7C 
   590)    179917.4  Rx         0343  8  00 91 80 4E A0 00 00 00 
   591)    179917.6  Rx         025B  8  D3 80 00 05 CA 8C 30 39 
   592)    179917.8  Rx         0340  8  0A 04 00 00 00 00 00 00 
   593)    179918.4  Rx         01D8  8  29 4A 84 40 00 00 00 10 
   594)    179918.7  Rx         01E5  8  08 6C 04 00 00 00 00 5E 
   595)    179919.4  Rx         0118  8  53 6E 95 00 2B C8 40 04 
   596)    179919.6  Rx         0266  8  08 00 0B 2A 0C 00 9F 01 
   597)    179919.8  Rx         02E1  8  FC 1F 20 4A A0 14 0A 00 
   598)    179920.5  Rx         03A2  8  E0 25 F2 FF 04 80 46 6F 
   599)    179920.7  Rx         0727  2  00 00 
   600)    179921.0  Rx         0439  8  00 00 00 00 00 18 63 02 
   601)    179921.5  Rx         0441  8  8E 85 89 00 32 00 30 67 
   602)    179921.7  Rx         0360  8  05 00 00 00 00 00 00 00 
   603)    179922.6  Rx         03C3  8  00 00 00 00 00 51 00 00 
   604)    179922.8  Rx         03E3  4  00 00 00 00 
   605)    179923.1  Rx         0132  6  A8 96 82 FF 4A 3F 
   606)    179923.5  Rx         0201  8  51 28 98 00 00 00 00 00 
   607)    179924.5  Rx         0545  8  01 00 00 00 00 10 A0 FB 
   608)    179926.5  Rx         0129  8  9B 2E 55 5F AD 1F FF 3F 
   609)    179926.8  Rx         0243  8  03 00 20 00 22 58 13 00 
   610)    179927.0  Rx         03E8  8  04 00 00 00 00 00 00 00 
   611)    179927.6  Rx         0102  8  22 B3 88 02 D4 46 A1 09 
   612)    179928.3  Rx         0118  8  54 6F 95 00 2B C8 40 04 
   613)    179928.5  Rx         0241  7  32 32 94 8C 0C 55 00 
   614)    179928.7  Rx         01D8  8  29 4A 84 40 00 00 20 30 
   615)    179929.0  Rx         01FB  8  00 00 00 00 00 00 00 00 
   616)    179929.2  Rx         0266  8  07 00 0B 2A 0B 00 9F 01 
   617)    179929.4  Rx         0553  8  00 00 00 00 00 00 E0 38 
   618)    179929.7  Rx         01E5  8  08 6C 04 00 00 00 20 7E 
   619)    179929.9  Rx         0257  8  41 00 25 04 24 88 12 01 
   620)    179930.1  Rx         0261  8  C4 FE 27 50 00 40 64 0B 
   621)    179930.4  Rx         0719  8  14 00 00 00 00 00 00 00 
   622)    179932.5  Rx         03AE  8  61 3F 00 08 00 00 10 B9 
   623)    179933.1  Rx         0132  6  B3 96 7E FF 35 3F 
   624)    179933.2  Rx         039D  5  3C 53 21 28 00 
   625)    179933.5  Rx         02C1  8  02 19 06 00 00 D0 92 09 
   626)    179933.8  Rx         0122  8  00 00 13 12 D2 00 00 00 
   627)    179934.0  Rx         02E1  8  05 00 00 00 00 40 26 00 
   628)    179934.2  Rx         0401  8  08 2A 6C 9D 66 9D 64 9D 
   629)    179934.6  Rx         0383  8  B1 18 1A 00 ED 40 C2 10 
   630)    179936.5  Rx         0129  8  78 2F 50 5F A8 1F FF 3F 
   631)    179936.7  Rx         0263  8  03 00 00 00 00 00 00 00 
   632)    179937.0  Rx         03C8  8  00 00 00 00 00 00 00 00 
   633)    179937.3  Rx         0379  8  06 00 52 A6 80 01 00 01 
   634)    179937.5  Rx         07A8  8  02 40 C0 07 00 0F 00 00 
   635)    179938.5  Rx         01D8  8  29 4A 84 40 00 00 40 50 
   636)    179938.7  Rx         01E5  8  08 6C 04 00 00 00 40 9E 
   637)    179939.3  Rx         0118  8  C4 60 95 00 2B C8 C0 03 
   638)    179939.6  Rx         0221  8  60 55 55 15 54 51 B1 98 
   639)    179939.8  Rx         0266  8  07 00 0B 2A 0B 00 9F 01 
   640)    179940.0  Rx         0272  8  03 80 61 00 00 00 00 00 
   641)    179940.2  Rx         02F1  8  0D 89 A4 40 23 40 05 00 
   642)    179940.6  Rx         0423  7  00 00 10 00 00 00 00 
   643)    179941.4  Rx         0381  8  0B 00 00 00 00 00 00 00 
   644)    179942.5  Rx         03AE  8  57 3F 00 08 00 00 20 BF 
   645)    179943.1  Rx         0132  6  AF 96 81 FF 2C 3F 
   646)    179943.5  Rx         0666  4  00 00 C8 00 
   647)    179943.7  Rx         055A  8  04 00 00 00 00 00 00 00 
   648)    179944.0  Rx         0405  8  11 33 45 31 45 41 34 48 
   649)    179944.1  Rx         0139  1  00 
   650)    179944.3  Rx         0113  3  01 97 01 
   651)    179944.4  Rx         07F4  1  01 
   652)    179944.6  Rx         07FF  8  05 00 00 01 20 00 80 00 
   653)    179944.9  Rx         0318  8  1A 03 25 15 1E 00 27 B7 
   654)    179945.1  Rx         0458  7  00 00 20 00 00 00 00 
   655)    179945.3  Rx         061D  8  01 00 34 50 16 45 00 00 
   656)    179945.6  Rx         0261  8  05 A2 41 C9 9A 42 70 2B 
   657)    179945.8  Rx         0238  8  20 27 48 5B 1E 00 A2 E4 
   658)    179946.0  Rx         0282  8  14 75 B2 09 F0 C4 02 24 
   659)    179946.5  Rx         0129  8  CE 20 4A 5F A3 1F FF 3F 
   660)    179946.7  Rx         0228  8  01 06 18 40 00 40 31 FA 
   661)    179947.0  Rx         0243  8  04 FC 03 F1 79 7C FF FF 
   662)    179947.2  Rx         02C3  8  00 00 00 4C 01 00 80 CB 
   663)    179947.5  Rx         0788  8  0C E5 E1 83 00 00 8E 00 
   664)    179947.7  Rx         02E1  8  66 80 08 00 75 E4 CA 69 
   665)    179948.3  Rx         0118  8  D6 61 95 00 2C C8 D0 03 
   666)    179948.5  Rx         01D8  8  29 4C 44 40 00 00 60 32 
   667)    179948.8  Rx         0201  8  02 00 00 00 00 00 00 00 
   668)    179949.0  Rx         0266  8  08 00 0B 2A 0C 00 9F 01 
   669)    179949.2  Rx         01E5  8  08 6C 04 00 00 00 60 BE 
   670)    179949.5  Rx         0257  8  62 11 25 04 2C 90 12 01 
   671)    179950.2  Rx         023E  8  F4 01 3A C0 FA FC 6F 94 
   672)    179950.5  Rx         03F5  8  00 00 BB 38 82 0D 00 00 
   673)    179951.0  Rx         037A  8  D2 00 00 00 00 00 00 00 
   674)    179951.5  Rx         01F8  4  00 00 00 00 
   675)    179952.3  Rx         07AA  8  0B 53 00 29 54 00 3D 00 
   676)    179952.5  Rx         022B  8  FF FF FF FF FF FF FF FF 
   677)    179953.1  Rx         0132  6  BF 96 80 FF 49 3F 
   678)    179953.3  Rx         0372  8  03 00 05 50 00 01 00 00 
   679)    179953.6  Rx         02C1  8  0B 1B 98 00 00 00 00 00 
   680)    179953.8  Rx         03A2  8  01 00 10 00 00 00 00 00 
   681)    179954.1  Rx         0295  8  C8 00 AB FF 00 00 00 0B 
   682)    179954.3  Rx         03C2  8  00 55 55 55 00 00 6A 05 
   683)    179954.5  Rx         0401  8  09 2A 62 9D 65 9D 62 9D 
   684)    179954.8  Rx         040A  8  09 10 00 00 00 00 F0 17 
   685)    179955.0  Rx         0677  8  01 00 00 00 00 00 00 00 
   686)    179955.5  Rx         03A1  8  C1 FF FF AF 3D 00 D0 3B 
   687)    179956.5  Rx         0129  8  73 21 45 5F 9F 1F FF 3F 
   688)    179956.8  Rx         0263  8  04 00 00 00 A0 20 00 00 
   689)    179957.0  Rx         0288  8  01 06 18 40 00 40 41 6A 
   690)    179957.2  Rx         02E8  8  01 01 00 00 06 80 60 D2 
   691)    179957.5  Rx         045A  8  FD 07 00 7F 02 00 00 8B 
   692)    179957.7  Rx         0289  8  00 00 00 00 00 00 00 13 
   693)    179958.0  Rx         0234  8  40 25 03 00 38 00 14 4F 
   694)    179958.2  Rx         0359  8  01 00 00 00 00 00 00 00 
   695)    179958.5  Rx         01D8  8  29 4C 84 40 00 00 80 92 
   696)    179958.7  Rx         01E5  8  08 6C 04 00 00 00 00 5E 
   697)    179958.9  Rx         0545  8  02 00 07 00 00 00 B0 03 
   698)    179959.4  Rx         0118  8  E7 62 95 00 2C C8 E0 03 
   699)    179959.6  Rx         020E  2  17 07 
   700)    179959.7  Rx         0211  6  A3 18 70 07 00 01 
   701)    179960.0  Rx         0266  8  08 00 0B 2A 0C 00 9F 01 
   702)    179960.1  Rx         0419  1  00 
   703)    179961.3  Rx         02D1  2  FF 01 
   704)    179961.6  Rx         0261  8  00 10 1D 00 9D 4A 80 C2 
   705)    179961.8  Rx         02E1  8  10 21 04 00 10 00 00 04 
   706)    179962.6  Rx         0225  4  55 55 FA 00 
   707)    179963.1  Rx         0132  6  B7 96 7D FF 30 3F 
   708)    179963.5  Rx         02D7  5  80 61 86 43 0E 
   709)    179966.5  Rx         0129  8  D6 22 3E 5F 9B 1F FF 3F 
   710)    179966.7  Rx         0243  8  00 FC CF 4C 9B 44 0D 29 
   711)    179967.0  Rx         0207  8  00 04 08 02 05 00 00 00 
   712)    179967.1  Rx         0229  3  6D 03 00 
   713)    179967.4  Rx         02A8  8  01 01 00 00 06 80 B0 E2 
   714)    179967.6  Rx         0249  4  39 0D 07 00 
   715)    179967.8  Rx         0448  6  20 00 10 10 00 00 
   716)    179968.0  Rx         03AE  8  48 3F 00 08 00 00 30 C0 
   717)    179968.2  Rx         054F  8  00 00 00 00 00 00 00 00 
   718)    179968.4  Rx         0118  8  D8 63 95 00 2C C8 D0 03 
   719)    179968.7  Rx         0283  6  02 04 00 00 41 00 
   720)    179968.9  Rx         01D8  8  29 4C 84 40 00 00 A0 B2 
   721)    179969.1  Rx         06A2  5  00 00 00 00 00 
   722)    179969.3  Rx         0266  8  08 00 0C 2A 0C 00 9F 01 
   723)    179969.6  Rx         01E5  8  08 6C 04 00 00 00 20 7E 
   724)    179969.8  Rx         0257  8  7B 22 25 04 2C 98 12 01 
   725)    179970.1  Rx         02C4  8  17 80 00 00 04 00 20 00 
   726)    179970.3  Rx         04E2  8  06 00 00 00 00 00 00 00 
   727)    179970.5  Rx         0204  8  01 00 00 FF 00 00 00 00 
   728)    179970.9  Rx         0264  6  2D 00 00 00 E0 01 
   729)    179971.4  Rx         0224  8  04 08 00 C0 DB 00 10 08 
   730)    179971.6  Rx         02B4  6  8B 05 18 0F 40 01 
   731)    179971.8  Rx         0441  8  65 01 B6 C3 58 00 35 D5 
   732)    179972.1  Rx         039A  8  34 17 FF 96 FF FD FD 61 
   733)    179972.5  Rx         0421  7  50 14 00 00 00 D0 48 
   734)    179973.1  Rx         0132  6  A9 96 7D FF 1D 3F 
   735)    179973.4  Rx         0320  8  01 01 00 00 00 00 00 00 
   736)    179973.6  Rx         0201  8  03 00 00 00 00 00 00 00 
   737)    179973.9  Rx         02BF  7  00 00 00 00 00 00 01 
   738)    179974.1  Rx         02C1  8  04 00 00 00 00 00 00 00 
   739)    179974.3  Rx         039D  5  3D 54 21 28 00 
   740)    179974.5  Rx         0401  8  0A 2A 66 9D 61 9D 62 9D 
   741)    179974.8  Rx         03C0  8  05 00 00 00 00 00 00 00 
   742)    179975.0  Rx         0420  7  28 01 40 4B 00 00 03 
   743)    179975.4  Rx         02E1  8  39 ED 39 B5 0D 00 00 00 
   744)    179975.7  Rx         0262  8  0B 00 A0 F7 00 30 13 12 
   745)    179976.5  Rx         0129  8  1B 23 38 5F 96 1F FF 3F 
   746)    179976.7  Rx         0263  8  E0 43 F6 6A A6 4F 5F 1F 
   747)    179977.0  Rx         02B3  8  E2 4D 0B 5C 90 5E 3D 00 
   748)    179977.2  Rx         0428  6  20 00 00 10 00 00 
   749)    179977.5  Rx         0261  8  19 00 1D 00 1A 4A 9A 62 
   750)    179978.4  Rx         01D8  8  29 4E 84 40 00 00 C0 D4 
   751)    179978.6  Rx         01FB  8  05 02 00 00 00 00 00 00 
   752)    179978.9  Rx         01E5  8  08 6C 04 00 00 00 40 9E 
   753)    179979.4  Rx         0118  8  1A 64 95 00 2C C8 10 04 
   754)    179979.6  Rx         0381  8  0C 00 00 00 00 00 00 00 
   755)    179979.8  Rx         0266  8  08 00 0C 2A 0C 00 9F 01 
   756)    179980.1  Rx         0719  8  15 6B 32 75 CD 00 00 00 
   757)    179980.6  Rx         0103  8  22 B3 88 04 72 3C 21 32 
   758)    179981.5  Rx         0552  8  00 00 00 00 00 00 F0 47 
   759)    179983.1  Rx         0132  6  A8 96 7C FF 40 3F 
   760)    179986.0  Rx         02F9  8  B0 FB 07 03 EF F5 78 E9 
   761)    179986.5  Rx         0129  8  7F 24 30 5F 8F 1F FF 3F 
   762)    179986.8  Rx         0123  8  01 00 00 00 00 3F 00 00 
   763)    179987.0  Rx         0243  8  01 FC 41 51 40 00 64 66 
   764)    179987.2  Rx         03A2  8  92 A8 FF 7F 03 00 00 00 
   765)    179987.5  Rx         0422  6  72 06 00 02 00 00 
   766)    179988.2  Rx         0118  8  6C 65 95 00 2D C8 60 04 
   767)    179988.5  Rx         01D8  8  29 50 84 40 00 00 E0 F6 
   768)    179988.7  Rx         0266  8  08 00 0C 2B 0C 00 9F 01 
   769)    179989.0  Rx         01E5  8  08 6C 04 00 00 00 60 BE 
   770)    179989.2  Rx         0257  8  7C 23 25 04 2C 98 12 01 
   771)    179989.4  Rx         031A  8  03 00 00 00 00 00 F0 10 
   772)    179989.7  Rx         0108  8  3D 4A 10 3A 08 71 02 25 
   773)    179989.9  Rx         0126  5  70 B0 1D 54 B8 
   774)    179990.0  Rx         0128  4  00 00 E4 0A 
   775)    179990.3  Rx         01D6  8  00 08 04 00 CA 08 05 08 
   776)    179990.5  Rx         0221  8  61 05 55 55 01 02 C0 F6 
   777)    179990.8  Rx         023E  8  F4 01 3A C0 FA FC 7F A4 
   778)    179991.0  Rx         0227  8  B6 03 14 00 42 00 00 81 
   779)    179991.2  Rx         0247  8  3E 0F FF 0D 00 FC 01 00 
   780)    179991.4  Rx         0268  5  2A 0C 79 01 A7 
   781)    179991.7  Rx         0279  8  B2 DA 0C 01 04 06 65 02 
   782)    179991.9  Rx         0287  8  37 37 37 38 03 03 01 02 
   783)    179992.0  Rx         01BB  1  02 
   784)    179992.1  Rx         02B6  3  00 B0 01 
   785)    179992.4  Rx         0284  8  30 00 00 00 40 08 60 5E 
   786)    179992.6  Rx         02E1  8  02 00 00 00 FF 00 02 00 
   787)    179992.9  Rx         0395  8  01 0F 10 46 39 3A 08 7D 
   788)    179993.1  Rx         0397  8  00 00 00 D8 1D 00 00 00 
   789)    179993.3  Rx         0132  6  B7 96 77 FF 27 3F 
   790)    179993.5  Rx         0261  8  02 2C 50 02 80 5C A1 2B 
   791)    179993.8  Rx         02C1  8  68 30 FE 00 4C 8E 02 00 
   792)    179994.0  Rx         02C2  8  55 5B A9 B6 82 C1 12 AA 
   793)    179994.3  Rx         03A3  8  14 C0 00 00 98 0B FC 01 
   794)    179994.5  Rx         03F9  8  08 00 00 00 00 00 00 00 
   795)    179994.7  Rx         0401  8  0B 2A 62 9D 51 9D 4F 9D 
   796)    179994.9  Rx         0545  8  B0 03 58 50 A3 31 CA 43 
   797)    179995.2  Rx         0677  8  02 00 00 00 00 00 00 00 
   798)    179995.4  Rx         0281  6  16 00 FF 1F 00 01 
   799)    179996.5  Rx         0129  8  12 25 27 5F 88 1F FF 3F 
   800)    179996.7  Rx         0263  8  D1 5B EE 72 9E 4F 5F 1F 
   801)    179996.9  Rx         0249  4  8B 0E 06 00 
   802)    179998.0  Rx         03AE  8  48 3F 00 08 00 00 41 D1 
   803)    179998.4  Rx         01D8  8  29 54 C4 40 00 00 00 5A 
   804)    179998.7  Rx         01E5  8  08 6C 04 00 00 00 00 5E 
   805)    179998.9  Rx         0201  8  00 3C 3B 18 00 E4 FF 00 
   806)    179999.2  Rx         0393  8  03 80 61 00 00 00 00 00 
   807)    179999.4  Rx         0118  8  6D 66 95 00 2D C8 60 04 
   808)    179999.7  Rx         07D5  8  2B 00 70 F6 00 00 00 00 
   809)    179999.9  Rx         0266  8  08 00 0C 2B 0C 00 9F 01 
   810)    180000.0  Rx         0409  1  00 
   811)    180000.3  Rx         0339  8  01 F1 FE 00 80 03 80 0C 
   812)    180000.5  Rx         07D5  8  2C 00 3E 00 00 00 00 00 
   813)    180000.7  Rx         03CC  8  03 11 83 1A 00 38 24 00 
   814)    180001.0  Rx         07D5  8  32 00 00 00 00 00 00 00 
   815)    180001.2  Rx         07D7  8  32 0C 00 00 00 00 00 00 
   816)    180001.5  Rx         02D2  8  3A 2F B5 4E 3D 06 9E 1E 
   817)    180001.8  Rx         0212  8  59 04 00 00 81 FF 77 31 
   818)    180002.0  Rx         0252  8  D6 18 4D 71 00 FC 0F 00 
   819)    180002.2  Rx         0292  8  14 23 1C F2 C7 01 00 00 
   820)    180002.5  Rx         022B  8  FF FF FF FF FF FF FF FF 
   821)    180002.7  Rx         022A  4  00 00 39 18 
   822)    180002.8  Rx         02F2  2  12 02 
   823)    180003.0  Rx         0400  7  FF 20 F8 BE F1 0B 01 
   824)    180003.2  Rx         0712  8  01 2A C8 0A CF 0A 15 0B 
   825)    180003.4  Rx         0132  6  AC 96 76 FF 19 3F 
   826)    180003.6  Rx         02E1  8  03 6D 66 02 1B 8C 00 00 
   827)    180003.9  Rx         02E2  8  E7 13 50 3F 01 00 00 00 
   828)    180004.1  Rx         03C2  8  29 55 00 00 00 00 00 00 
   829)    180004.3  Rx         0726  3  0C 00 00 
   830)    180004.7  Rx         020C  8  23 78 39 1E 39 01 30 10 
   831)    180005.5  Rx         03A1  8  88 4C 0C CA 00 34 E2 80 
   832)    180006.5  Rx         0129  8  59 26 1E 5F 7F 1F FF 3F 
   833)    180006.8  Rx         0243  8  02 FC 2B 0F 05 C5 00 00 
   834)    180007.0  Rx         045A  8  A4 46 C5 C8 5F 23 51 41 
   835)    180007.3  Rx         01F9  8  00 00 00 00 00 00 00 00 
   836)    180007.5  Rx         078A  8  01 00 00 00 1C 13 19 0D 
   837)    180007.8  Rx         03AE  8  33 3F 00 08 00 00 51 CC 
   838)    180008.0  Rx         0234  8  2F E0 02 FA E8 03 20 B1 
   839)    180008.3  Rx         0118  8  6F 67 95 00 2E C8 60 04 
   840)    180008.5  Rx         031E  8  01 00 00 00 00 00 00 00 
   841)    180008.8  Rx         01D8  8  29 58 C4 40 00 00 20 7E 
   842)    180009.0  Rx         0266  8  08 00 0C 2B 0C 00 9F 01 
   843)    180009.3  Rx         01E5  8  08 6C 04 00 00 00 20 7E 
   844)    180009.5  Rx         021D  8  04 00 35 00 00 00 00 00 
   845)    180009.7  Rx         01FA  3  1A C0 01 
   846)    180009.9  Rx         0257  8  9E 34 25 05 34 A0 12 01 
   847)    180010.1  Rx         0261  8  CB 50 0A 00 00 40 B5 48 
   848)    180010.3  Rx         025D  8  14 41 01 2A 04 F0 00 00 
   849)    180010.5  Rx         041D  1  14 
   850)    180010.7  Rx         04E3  8  06 00 00 00 00 00 00 00 
   851)    180011.3  Rx         0682  8  00 00 00 40 04 04 00 05 
   852)    180013.2  Rx         0132  6  A7 96 79 FF 33 3F 
   853)    180013.4  Rx         0372  8  04 00 00 00 00 00 90 11 
   854)    180013.6  Rx         02C1  8  21 6B 18 64 02 00 00 00 
   855)    180013.8  Rx         039D  5  3E 55 21 28 00 
   856)    180014.0  Rx         0401  8  0C 2A 53 9D 9D 9C 5D 9D 
   857)    180014.2  Rx         0119  4  00 00 00 00 
   858)    180015.5  Rx         0242  3  55 55 86 
   859)    180016.5  Rx         0129  8  D8 27 16 5F 77 1F FF 3F 
   860)    180016.8  Rx         0263  8  02 00 E0 07 10 3D 3F 21 
   861)    180016.9  Rx         0249  4  EA 0F 06 00 
   862)    180017.2  Rx         0343  8  00 91 40 7E 9F 00 00 00 
   863)    180017.5  Rx         0340  8  0B 00 00 00 00 00 00 00 
   864)    180017.8  Rx         025B  8  D3 80 00 05 CA 8C 40 49 
   865)    180018.0  Rx         02E1  8  FC 1F 1F 4A A0 19 0A 00 
   866)    180018.3  Rx         0381  8  0D 00 00 00 00 00 00 00 
   867)    180018.5  Rx         01D8  8  29 5C 04 41 00 00 40 E3 
   868)    180018.7  Rx         01E5  8  08 6C 04 00 00 00 40 9E 
   869)    180019.4  Rx         0118  8  40 68 95 00 2E C8 30 04 
   870)    180019.6  Rx         0266  8  08 00 0C 2B 0C 00 9F 01 
   871)    180019.9  Rx         03A2  8  E0 A5 F3 08 05 80 46 6F 
   872)    180021.1  Rx         0439  8  00 00 00 00 00 18 63 02 
   873)    180021.5  Rx         0441  8  8E 85 89 00 32 00 38 6F 
   874)    180021.7  Rx         0360  8  06 00 00 00 00 00 00 00 
   875)    180022.6  Rx         03AE  8  20 3F 00 08 00 00 61 C9 
   876)    180022.8  Rx         03C3  8  55 55 55 01 00 00 00 00 
   877)    180023.1  Rx         07AA  8  0C 00 00 00 00 00 00 00 
   878)    180023.3  Rx         0132  6  B3 96 78 FF 2C 3F 
   879)    180023.5  Rx         0201  8  51 28 98 00 00 00 00 00 
   880)    180023.7  Rx         0545  8  01 00 00 00 00 10 D0 2B 
   881)    180025.5  Rx         0261  8  C4 FE 27 50 00 40 C4 6B 
   882)    180026.6  Rx         0129  8  F0 28 0C 5F 6E 1F FF 3F 
   883)    180026.8  Rx         0243  8  03 00 20 00 22 58 13 00 
   884)    180027.0  Rx         03E8  8  05 00 00 00 00 00 00 00 
   885)    180027.6  Rx         0102  8  22 B3 88 02 D4 46 A1 09 
   886)    180028.3  Rx         0118  8  61 69 95 00 2E C8 50 04 
   887)    180028.5  Rx         01D8  8  29 62 04 41 00 00 60 09 
   888)    180028.8  Rx         01FB  8  00 00 00 00 00 00 00 00 
   889)    180029.0  Rx         0241  7  32 32 94 8C 0C 55 00 
   890)    180029.2  Rx         0266  8  08 00 0C 2B 0C 00 9F 01 
   891)    180029.5  Rx         01E5  8  08 6C 04 00 00 00 60 BE 
   892)    180029.7  Rx         0257  8  AF 45 25 05 34 A0 12 01 
   893)    180030.0  Rx         0553  8  00 00 00 00 00 00 F0 48 
   894)    180030.2  Rx         0719  8  16 00 00 00 00 00 00 00 
   895)    180030.4  Rx         023E  8  F4 01 3A C0 FA FC 8F B4 
   896)    180030.6  Rx         0748  5  2B 20 0A 00 00 
   897)    180031.5  Rx         02E1  8  05 00 00 00 00 40 26 00 
   898)    180033.1  Rx         0132  6  B5 96 79 FF 0C 3F 
   899)    180033.3  Rx         0401  8  0D 2A 4E 9D 4B 9D 47 9D 
   900)    180033.6  Rx         0122  8  01 00 00 00 00 3F 00 00 
   901)    180033.8  Rx         02C1  8  02 19 06 00 00 D0 92 09 
   902)    180034.1  Rx         0677  8  03 00 00 00 00 00 00 00 
   903)    180034.7  Rx         0383  8  B1 18 1A 00 ED 40 C2 10 
   904)    180036.5  Rx         0129  8  8D 29 02 5F 65 1F FF 3F 
   905)    180036.8  Rx         0263  8  03 00 00 00 00 00 00 00 
   906)    180037.0  Rx         02B3  8  03 46 46 24 0A 00 00 3D 
   907)    180037.3  Rx         0379  8  07 20 67 15 0D C0 14 06 
   908)    180037.5  Rx         03C8  8  01 00 00 00 00 00 00 00 
   909)    180037.7  Rx         07A8  8  0C E5 E1 83 00 00 82 00 
   910)    180038.5  Rx         01D8  8  29 68 44 41 00 00 80 6F 
   911)    180038.7  Rx         01E5  8  08 6C 04 00 00 00 00 5E 
   912)    180039.4  Rx         0118  8  B3 6A 95 00 2F C8 A0 04 
   913)    180039.6  Rx         0221  8  60 55 55 15 54 51 D1 B8 
   914)    180039.9  Rx         0266  8  08 00 0C 2B 0C 00 9F 01 
   915)    180040.1  Rx         0272  8  08 00 0E 31 08 C0 0E 10 
   916)    180040.3  Rx         02F1  8  0E 00 00 00 00 00 00 00 
   917)    180040.6  Rx         0423  7  00 00 10 00 00 00 00 
   918)    180041.5  Rx         0261  8  05 A2 41 C9 9A 42 D0 8B 
   919)    180041.8  Rx         0285  8  41 05 EF 01 04 00 34 00 
   920)    180042.0  Rx         0286  5  EF F5 78 E9 37 
   921)    180043.1  Rx         0132  6  AF 96 79 FF 10 3F 
   922)    180043.5  Rx         0113  3  01 97 01 
   923)    180043.7  Rx         07F4  1  01 
   924)    180043.9  Rx         07FF  8  06 00 30 00 00 00 00 C0 
   925)    180044.0  Rx         0139  1  00 
   926)    180044.3  Rx         0318  8  1A 03 25 15 1E 00 29 B9 
   927)    180044.5  Rx         0458  7  00 00 20 00 00 00 00 
   928)    180045.5  Rx         02E1  8  66 80 08 00 75 E4 CA 69 
   929)    180045.7  Rx         0282  8  14 75 B2 09 F0 C4 02 24 
   930)    180046.5  Rx         0129  8  E6 2A F8 5E 5B 1F FF 3F 
   931)    180046.8  Rx         0228  8  01 06 18 40 00 40 41 0A 
   932)    180047.0  Rx         0243  8  04 FC 03 F1 79 7C FF FF 
   933)    180047.2  Rx         0249  4  9B 00 00 00 
   934)    180047.4  Rx         02C3  8  55 5B A9 06 80 C1 12 AA 
   935)    180047.7  Rx         0788  8  01 00 00 00 FF A1 18 14 
   936)    180048.3  Rx         0118  8  C4 6B 95 00 2F C8 B0 04 
   937)    180048.5  Rx         01D8  8  29 70 84 41 00 00 A0 D7 
   938)    180048.8  Rx         0201  8  02 00 00 00 00 00 00 00 
   939)    180049.0  Rx         0266  8  08 00 0C 2B 0C 00 9F 01 
   940)    180049.3  Rx         01E5  8  08 6C 04 00 00 00 20 7E 
   941)    180049.5  Rx         0257  8  C0 46 25 05 3C A8 12 01 
   942)    180050.5  Rx         03F5  8  00 00 BB 38 82 0C 00 00 
   943)    180051.1  Rx         037A  8  7B 00 00 00 00 00 00 00 
   944)    180051.5  Rx         01F8  4  00 00 00 00 
   945)    180052.3  Rx         022B  8  FF FF FF FF FF FF FF FF 
   946)    180052.6  Rx         03A2  8  01 00 10 00 00 00 00 00 
   947)    180053.1  Rx         0132  6  AB 96 76 FF 29 3F 
   948)    180053.3  Rx         039D  5  3F 56 21 28 00 
   949)    180053.6  Rx         02C1  8  0B 1B 98 00 00 00 00 00 
   950)    180053.8  Rx         03C2  8  00 55 55 55 00 00 6A 05 
   951)    180054.0  Rx         03E2  7  02 00 00 00 00 C0 00 
   952)    180054.2  Rx         0401  8  0E 2A 5A 9D 4D 9D 5D 9D 
   953)    180054.7  Rx         02E3  7  03 00 00 02 02 0B 00 
   954)    180055.5  Rx         0381  8  0E 00 00 00 00 E0 FF 00 
   955)    180055.7  Rx         03A1  8  C1 FF FF 9B 3D 00 F0 47 
   956)    180056.5  Rx         0545  8  02 00 06 00 00 00 E0 32 
   957)    180056.7  Rx         0129  8  16 2B ED 5E 51 1F FF 3F 
   958)    180057.0  Rx         0263  8  04 00 00 00 A0 20 00 00 
   959)    180057.2  Rx         0288  8  01 06 18 40 00 40 51 7A 
   960)    180057.4  Rx         02E8  8  01 01 00 00 06 80 70 E2 
   961)    180057.7  Rx         0261  8  00 10 1D 00 9D 4A E0 22 
   962)    180057.9  Rx         0234  8  40 25 03 00 38 00 34 6F 
   963)    180058.2  Rx         0289  8  00 00 00 00 00 00 00 13 
   964)    180058.4  Rx         0359  8  02 02 00 00 64 82 86 24 
   965)    180058.6  Rx         01D8  8  29 76 04 42 00 00 C0 7E 
   966)    180058.9  Rx         03AE  8  02 3F 00 08 00 00 71 BB 
   967)    180059.1  Rx         01E5  8  08 6C 04 00 00 00 40 9E 
   968)    180059.4  Rx         045A  8  FD 07 00 7F 02 00 00 8B 
   969)    180059.6  Rx         0118  8  96 6C 95 00 30 C8 80 04 
   970)    180059.7  Rx         020E  2  10 00 
   971)    180059.9  Rx         0211  6  A4 19 70 07 00 01 
   972)    180060.2  Rx         0266  8  08 00 0C 2B 0C 00 9F 01 
   973)    180060.4  Rx         02E1  8  10 21 04 00 10 00 00 04 
   974)    180060.5  Rx         0419  1  00 
   975)    180061.4  Rx         02D1  2  FF 01 
   976)    180062.6  Rx         0225  4  55 55 FA 00 
   977)    180063.2  Rx         0132  6  A0 96 72 FF 0F 3F 
   978)    180063.5  Rx         02D7  5  80 61 86 43 0E 
   979)    180066.4  Rx         0207  8  00 04 08 02 05 00 00 00 
   980)    180066.7  Rx         0129  8  F2 2C E3 5E 48 1F FF 3F 
   981)    180066.9  Rx         0243  8  00 FC CF 4C 9B 44 0D 29 
   982)    180067.0  Rx         0229  3  43 04 00 
   983)    180067.3  Rx         02A8  8  01 01 00 00 06 80 C0 F2 
   984)    180067.4  Rx         0249  4  E8 01 00 00 
   985)    180067.6  Rx         0448  6  20 00 10 10 00 00 
   986)    180067.9  Rx         054F  8  00 00 00 00 00 00 00 00 
   987)    180068.1  Rx         06A2  5  00 00 00 00 00 
   988)    180068.4  Rx         0118  8  57 6D 95 00 30 C8 40 04 
   989)    180068.6  Rx         01D8  8  29 7E 84 42 00 00 E0 26 
   990)    180068.9  Rx         0266  8  08 00 0C 2B 0C 00 9F 01 
   991)    180069.1  Rx         01E5  8  08 6C 04 00 00 00 60 BE 
   992)    180069.3  Rx         0257  8  D1 57 25 05 3C A8 12 01 
   993)    180069.6  Rx         0283  6  02 04 00 00 41 00 
   994)    180069.8  Rx         04E2  8  00 24 03 05 00 00 28 00 
   995)    180070.0  Rx         02C4  8  19 F6 17 03 04 24 F0 01 
   996)    180070.3  Rx         023E  8  F4 01 3A C0 FA FC 9F C4 
   997)    180070.6  Rx         0204  8  01 00 00 FF 00 00 00 00 
   998)    180070.9  Rx         0264  6  2E 00 00 00 E0 01 
   999)    180071.2  Rx         0224  8  04 08 00 C0 DB 00 10 08 
  1000)    180071.4  Rx         02B4  6  8E 05 17 0F 4F 01 
  1001)    180071.6  Rx         0441  8  63 01 B6 C3 58 00 3D DB 
  1002)    180072.1  Rx         039A  8  FD FD FD FD FD 01 00 02 
  1003)    180072.5  Rx         0421  7  50 14 00 00 00 D0 48 
  1004)    180073.2  Rx         0132  6  9A 96 73 FF 05 3F 
  1005)    180073.4  Rx         0372  8  05 49 3B 15 00 00 00 00 
  1006)    180073.7  Rx         0201  8  03 00 00 00 00 00 00 00 
  1007)    180073.9  Rx         0261  8  19 00 42 00 1A 4A FA E7 
  1008)    180074.1  Rx         02C1  8  04 00 00 00 00 00 00 00 
  1009)    180074.4  Rx         02E1  8  39 ED 39 B5 0D 00 00 00 
  1010)    180074.6  Rx         0321  8  26 82 A8 8D 01 89 E0 6B 
  1011)    180074.9  Rx         03C0  8  06 00 00 00 00 00 00 00 
  1012)    180075.1  Rx         0401  8  0F 2A 59 9D 5C 9D 57 9D 
  1013)    180075.3  Rx         0420  7  28 01 40 4B 00 80 03 
  1014)    180075.5  Rx         0677  8  04 00 00 00 00 00 00 00 
  1015)    180075.8  Rx         0262  8  0B 00 A0 F7 00 30 13 12 
  1016)    180076.0  Rx         0718  7  03 00 00 00 00 00 00 
  1017)    180076.6  Rx         0129  8  04 2D D8 5E 40 1F FF 3F 
  1018)    180076.8  Rx         0263  8  E0 43 F6 6A A6 4F 5F 1F 
  1019)    180077.0  Rx         0428  6  20 00 00 10 00 00 
  1020)    180078.5  Rx         01D8  8  29 88 C4 42 00 00 00 90 
  1021)    180078.7  Rx         01E5  8  08 6C 04 00 00 00 00 5E 
  1022)    180078.9  Rx         01FB  8  05 02 00 00 00 00 00 00 
  1023)    180079.4  Rx         0118  8  79 6E 95 00 31 C8 60 04 
  1024)    180079.6  Rx         0266  8  08 00 0C 2B 0C 00 9F 01 
  1025)    180080.1  Rx         043B  8  02 7F 00 FF 00 00 00 00 
  1026)    180080.4  Rx         034A  8  01 00 00 00 00 00 00 20 
  1027)    180080.6  Rx         0719  8  17 00 00 00 00 00 00 00 
  1028)    180080.9  Rx         0103  8  22 B3 88 04 72 3E 21 32 
  1029)    180081.6  Rx         0552  8  00 00 00 00 00 00 00 57 
  1030)    180082.6  Rx         03AE  8  ED 3E 00 08 00 00 81 B5 
  1031)    180083.1  Rx         0132  6  9F 96 76 FF 0F 3F 
  1032)    180085.6  Rx         03A2  8  82 A8 FF 7F 03 00 00 00 
  1033)    180086.1  Rx         02F9  8  B0 FB 07 08 EF F5 78 E9 
  1034)    180086.5  Rx         0129  8  7F 2E CC 5E 3A 1F FF 3F 
  1035)    180086.8  Rx         0123  8  00 00 13 12 D2 00 00 00 
  1036)    180087.0  Rx         0243  8  01 FC 40 51 42 00 64 66 
  1037)    180087.2  Rx         070B  8  02 B0 C8 00 64 7F 3E 00 
  1038)    180087.5  Rx         02E1  8  02 00 00 00 FF 00 02 00 
  1039)    180087.7  Rx         0422  6  72 06 00 02 00 00 
  1040)    180088.3  Rx         0118  8  4A 6F 95 00 31 C8 30 04 
  1041)    180088.5  Rx         01D8  8  29 90 C4 42 00 00 20 B8 
  1042)    180088.8  Rx         0266  8  08 00 0C 2B 0C 00 9F 01 
  1043)    180089.0  Rx         01E5  8  08 6C 04 00 00 00 20 7E 
  1044)    180089.2  Rx         0257  8  E2 58 25 05 44 B0 12 01 
  1045)    180089.5  Rx         0261  8  02 2C 50 02 80 5C 01 8B 
  1046)    180089.7  Rx         0108  8  0D 8B 11 B2 08 87 02 25 
  1047)    180089.9  Rx         0126  5  73 B0 1D 5C C3 
  1048)    180090.1  Rx         0128  4  00 00 E4 0A 
  1049)    180090.3  Rx         01D6  8  00 08 04 00 CA 88 08 08 
  1050)    180090.6  Rx         0221  8  61 05 55 55 01 02 E0 16 
  1051)    180090.8  Rx         0268  5  2B 0C 79 01 A7 
  1052)    180091.0  Rx         0227  8  BC 03 15 00 42 00 00 81 
  1053)    180091.2  Rx         0247  8  3E 0F FF 0D 00 FB 01 00 
  1054)    180091.5  Rx         0279  8  B3 DB 0C 01 04 06 65 02 
  1055)    180091.6  Rx         02B6  3  00 B0 01 
  1056)    180091.8  Rx         0545  8  B0 03 58 10 A3 2E FA 30 
  1057)    180092.1  Rx         0313  8  02 64 64 05 00 00 C0 A5 
  1058)    180092.3  Rx         0287  8  37 37 37 38 03 03 01 02 
  1059)    180092.5  Rx         02D3  8  F1 00 8A 03 22 0D 13 57 
  1060)    180092.8  Rx         0395  8  01 0F 10 46 39 3A 08 7D 
  1061)    180093.0  Rx         0285  8  02 9F 00 00 00 00 F6 00 
  1062)    180093.2  Rx         0132  6  B6 96 73 FF 24 3F 
  1063)    180093.5  Rx         0397  8  00 00 00 D8 1D 00 00 00 
  1064)    180093.7  Rx         02C1  8  68 30 FE 00 4C 8E 02 00 
  1065)    180093.9  Rx         02C2  8  20 40 C0 4B 01 00 40 CB 
  1066)    180094.2  Rx         0381  8  EF FF FF CD 03 00 CF 0C 
  1067)    180094.4  Rx         039D  5  40 57 21 28 00 
  1068)    180094.6  Rx         03A3  8  12 D0 00 00 98 0B FC 01 
  1069)    180094.8  Rx         03F9  8  00 00 00 00 00 00 00 00 
  1070)    180095.1  Rx         0401  8  10 2A 4A 9D 4E 9D 48 9D 
  1071)    180095.5  Rx         0281  6  15 00 FF 1F 00 01 
  1072)    180096.5  Rx         0129  8  E0 2F C1 5E 33 1F FF 3F 
  1073)    180096.8  Rx         0263  8  D1 5B EE 72 9E 4F 5F 1F 
  1074)    180097.0  Rx         02B3  8  64 A2 C3 8D 1B 15 17 00 
  1075)    180097.8  Rx         0409  1  00 
  1076)    180098.4  Rx         01D8  8  29 9A 44 43 00 00 40 63 
  1077)    180098.7  Rx         01E5  8  08 6C 04 00 00 00 40 9E 
  1078)    180098.9  Rx         0201  8  00 3C 3C 19 00 E4 FF 00 
  1079)    180099.2  Rx         0393  8  08 00 0E 49 08 C0 0E 10 
  1080)    180099.4  Rx         0118  8  EA 60 95 00 31 C8 E0 03 
  1081)    180099.6  Rx         07D5  8  2B 00 70 F6 00 00 00 00 
  1082)    180099.9  Rx         0266  8  08 00 0C 2B 0C 00 9F 01 
  1083)    180100.2  Rx         07D5  8  2C 00 3E 00 00 00 00 00 
  1084)    180100.4  Rx         0339  8  01 F1 FE 00 80 03 80 0C 
  1085)    180100.6  Rx         07D5  8  32 00 00 00 00 00 00 00 
  1086)    180100.9  Rx         07D7  8  32 0C 00 00 00 00 00 00 
  1087)    180101.5  Rx         02E1  8  03 6D 66 02 1B 8B 00 00 
  1088)    180101.7  Rx         0212  8  59 04 00 00 81 FF 77 31 
  1089)    180101.9  Rx         0252  8  D6 18 4D 71 00 FC 0F 00 
  1090)    180102.2  Rx         0292  8  14 23 1C F2 C7 01 00 00 
  1091)    180102.4  Rx         022A  4  00 00 39 18 
  1092)    180102.6  Rx         022B  8  FF FF FF FF FF FF FF FF 
  1093)    180102.8  Rx         02D2  8  3B 2F B5 4E 3D 06 9E 1E 
  1094)    180103.0  Rx         02F2  2  12 02 
  1095)    180103.2  Rx         0400  7  FF 20 F8 3E F1 0B 01 
  1096)    180103.4  Rx         0132  6  AA 96 6F FF 07 3F 
  1097)    180103.6  Rx         03A8  8  1C E0 7F 4F FC 0F 00 00 
  1098)    180103.9  Rx         03C2  8  29 55 00 00 00 00 00 00 
  1099)    180104.1  Rx         0712  8  02 2A 12 0B D6 0A B0 0A 
  1100)    180104.3  Rx         0752  8  00 78 10 B1 05 00 00 00 
  1101)    180104.7  Rx         020C  8  1E 58 39 1E 39 01 30 10 
  1102)    180105.5  Rx         0261  8  CB 50 0A 00 00 40 15 A8 
  1103)    180105.7  Rx         03A1  8  88 4C 0C CA 00 34 02 A0 
  1104)    180106.0  Rx         07AA  8  C0 EB 8E 3C 00 08 00 00 
  1105)    180106.6  Rx         0129  8  18 20 B4 5E 2C 1F FF 3F 
  1106)    180106.8  Rx         0243  8  02 FC 13 0F 05 C5 00 00 
  1107)    180107.0  Rx         045A  8  A4 46 C5 C8 5F 23 51 40 
  1108)    180107.2  Rx         01F9  8  00 00 00 00 00 00 00 00 
  1109)    180107.5  Rx         078A  8  01 00 01 00 CC 5D 80 5E 
  1110)    180108.0  Rx         0234  8  31 E0 02 FA E8 03 40 D3 
  1111)    180108.3  Rx         0310  8  0B 00 04 02 04 00 04 00 
  1112)    180108.5  Rx         0118  8  3C 61 95 00 31 C8 30 04 
  1113)    180108.7  Rx         01D8  8  29 A4 C4 43 00 00 60 0D 
  1114)    180109.0  Rx         0266  8  08 00 0C 2B 0C 00 9F 01 
  1115)    180109.2  Rx         01E5  8  08 6C 04 00 00 00 60 BE 
  1116)    180109.5  Rx         021D  8  04 00 35 00 00 00 00 00 
  1117)    180109.6  Rx         01FA  3  1A C0 01 
  1118)    180109.8  Rx         0257  8  03 69 25 05 4C B8 12 01 
  1119)    180110.1  Rx         031E  8  02 00 00 00 00 00 00 00 
  1120)    180110.4  Rx         025D  8  14 41 01 2A 04 F0 00 00 
  1121)    180110.4  Rx         041D  1  14 
  1122)    180110.7  Rx         04E3  8  00 A9 02 00 00 00 28 00 
  1123)    180110.9  Rx         023E  8  F4 01 3A C0 FA FC AF D4 
  1124)    180111.2  Rx         0682  8  00 00 00 40 04 04 10 15 
  1125)    180111.4  Rx         075D  8  80 00 00 00 00 00 00 00 
  1126)    180113.2  Rx         0132  6  AC 96 6A FF F4 3E 
  1127)    180113.4  Rx         0401  8  11 2A 4E 9D 50 9D 50 9D 
  1128)    180113.6  Rx         02C1  8  21 6B 18 64 02 00 00 00 
  1129)    180113.9  Rx         0677  8  00 00 00 00 00 00 00 00 
  1130)    180114.0  Rx         0119  4  00 00 00 00 
  1131)    180114.3  Rx         03AE  8  CB 3E 00 08 00 00 91 A3 
  1132)    180115.5  Rx         02E1  8  FC 1F 1F 3A A0 19 0A 00 
  1133)    180115.6  Rx         0242  3  55 55 86 
  1134)    180116.5  Rx         0129  8  2F 21 A7 5E 23 1F FF 3F 
  1135)    180116.8  Rx         0263  8  02 00 E0 07 10 3D 3F 21 
  1136)    180116.9  Rx         0249  4  2A 02 00 00 
  1137)    180117.2  Rx         0343  8  00 91 48 CE 9F 00 00 00 
  1138)    180117.6  Rx         0340  8  00 00 00 00 00 00 00 00 
  1139)    180117.8  Rx         025B  8  D3 80 00 05 CA 8C 50 59 
  1140)    180118.5  Rx         01D8  8  29 AE 44 44 00 00 80 B8 
  1141)    180118.7  Rx         01E5  8  08 6C 04 00 00 00 00 5E 
  1142)    180118.9  Rx         03A2  8  E0 25 72 01 05 80 46 6F 
  1143)    180119.4  Rx         0118  8  6D 62 95 00 31 C8 60 04 
  1144)    180119.7  Rx         0266  8  09 00 0C 2B 0D 00 9F 01 
  1145)    180121.1  Rx         0439  8  00 00 00 00 00 18 63 02 
  1146)    180121.5  Rx         0261  8  C4 FE 1F 50 00 40 24 C3 
  1147)    180121.7  Rx         0360  8  07 00 00 00 00 00 00 00 
  1148)    180122.0  Rx         0441  8  8E 85 89 00 32 00 00 37 
  1149)    180122.5  Rx         0545  8  01 00 00 00 00 10 00 5B 
  1150)    180122.7  Rx         03AE  8  B2 3E 00 08 00 00 A1 9A 
  1151)    180123.0  Rx         03C3  8  00 00 00 00 00 51 00 00 
  1152)    180123.2  Rx         0132  6  9D 96 6E FF F9 3E 
  1153)    180123.3  Rx         03E3  4  00 00 00 00 
  1154)    180123.6  Rx         0201  8  51 28 98 00 00 00 00 00 
  1155)    180126.5  Rx         0129  8  93 22 99 5E 1B 1F FF 3F 
  1156)    180126.8  Rx         0243  8  03 00 20 00 22 58 13 00 
  1157)    180127.0  Rx         03E8  8  06 00 00 00 00 00 00 00 
  1158)    180127.6  Rx         0102  8  22 B3 88 02 D4 46 A1 09 
  1159)    180128.3  Rx         0118  8  6E 63 95 00 31 C8 60 04 
  1160)    180128.5  Rx         01D8  8  29 B6 04 45 00 00 A0 A1 
  1161)    180128.8  Rx         01FB  8  00 00 00 00 00 00 00 00 
  1162)    180129.0  Rx         0241  7  32 32 94 8C 0C 55 00 
  1163)    180129.2  Rx         0266  8  09 00 0C 2B 0D 00 9F 01 
  1164)    180129.5  Rx         0553  8  00 00 00 00 00 00 00 58 
  1165)    180129.7  Rx         01E5  8  08 6C 04 00 00 00 20 7E 
  1166)    180129.9  Rx         0257  8  04 6A 25 05 4C B8 12 01 
  1167)    180130.2  Rx         02E1  8  05 00 00 00 00 40 26 00 
  1168)    180130.4  Rx         0719  8  00 01 0C 14 14 05 0D 00 
  1169)    180131.5  Rx         0381  8  30 00 00 00 00 00 00 00 
  1170)    180133.1  Rx         0132  6  9F 96 6F FF 14 3F 
  1171)    180133.4  Rx         0372  8  06 FA D2 18 0A 3B D8 02 
  1172)    180133.6  Rx         02C1  8  02 19 06 00 00 D0 92 09 
  1173)    180133.8  Rx         0122  8  00 00 13 12 D2 00 00 00 
  1174)    180134.0  Rx         039D  5  41 58 21 28 00 
  1175)    180134.2  Rx         0401  8  12 2A 4D 9D 58 9D 49 9D 
  1176)    180134.7  Rx         0383  8  B1 18 1A 00 ED 40 C2 10 
  1177)    180136.6  Rx         0129  8  CF 23 8B 5E 12 1F FF 3F 
  1178)    180136.8  Rx         0263  8  03 00 00 00 00 00 00 00 
  1179)    180137.0  Rx         03C8  8  02 00 00 00 00 00 00 00 
  1180)    180137.3  Rx         0379  8  08 00 00 00 03 00 0C 03 
  1181)    180137.5  Rx         07A8  8  01 00 00 00 FF A1 08 14 
  1182)    180137.7  Rx         0261  8  05 A2 41 C9 9A 42 30 EB 
  1183)    180138.5  Rx         01D8  8  29 C0 84 45 00 00 C0 4B 
  1184)    180138.7  Rx         01E5  8  08 6C 04 00 00 00 40 9E 
  1185)    180139.4  Rx         0118  8  3F 64 95 00 31 C8 30 04 
  1186)    180139.6  Rx         0221  8  60 55 55 15 54 51 F1 D8 
  1187)    180139.8  Rx         0266  8  09 00 0C 2B 0D 00 9F 01 
  1188)    180140.1  Rx         0272  8  03 80 61 00 00 00 00 00 
  1189)    180140.3  Rx         02F1  8  0F F6 E9 9F 99 C3 39 00 
  1190)    180140.6  Rx         0423  7  00 00 10 00 00 00 00 
  1191)    180141.9  Rx         03DF  8  00 00 80 00 01 D0 01 0B 
  1192)    180142.1  Rx         0293  8  02 2C 55 90 15 14 5F 30 
  1193)    180142.4  Rx         0253  8  00 61 4F 3F 64 00 2A 04 
  1194)    180142.6  Rx         0285  8  03 69 A3 3A 9F 00 00 00 
  1195)    180143.1  Rx         0132  6  A5 96 6D FF 1A 3F 
  1196)    180143.5  Rx         02E1  8  66 80 08 00 75 E4 CA 69 
  1197)    180143.6  Rx         0113  3  01 97 01 
  1198)    180143.8  Rx         07F4  1  01 
  1199)    180144.0  Rx         07FF  8  07 20 00 01 28 00 00 00 
  1200)    180144.1  Rx         0139  1  00 
  1201)    180144.4  Rx         0318  8  1A 03 25 15 1E 00 2B BB 
  1202)    180144.6  Rx         0458  7  00 00 20 00 00 00 00 
  1203)    180145.6  Rx         0282  8  0C 75 02 0A F0 C4 02 24 
  1204)    180146.5  Rx         0129  8  E6 24 7C 5E 08 1F FF 3F 
  1205)    180146.8  Rx         0228  8  01 06 18 40 00 40 51 1A 
  1206)    180147.0  Rx         0243  8  04 FC 03 F1 79 7C FF FF 
  1207)    180147.3  Rx         02C3  8  00 00 00 4C 01 00 80 CB 
  1208)    180147.5  Rx         0788  8  02 40 C6 07 00 03 00 00 
  1209)    180147.7  Rx         03AE  8  89 3E 00 08 00 00 B0 80 
  1210)    180148.3  Rx         0118  8  80 65 95 00 31 C8 70 04 
  1211)    180148.5  Rx         01D8  8  29 C8 04 46 00 00 E0 F4 
  1212)    180148.8  Rx         0201  8  02 00 00 00 00 00 00 00 
  1213)    180149.0  Rx         0266  8  09 00 0D 2B 0D 00 9F 01 
  1214)    180149.3  Rx         01E5  8  08 6C 04 00 00 00 60 BE 
  1215)    180149.5  Rx         0257  8  25 7B 25 05 54 C0 12 01 
  1216)    180150.3  Rx         023E  8  F4 01 3A C0 FA FC BF E4 
  1217)    180150.5  Rx         03F5  8  00 00 BB 38 82 0C 00 00 
  1218)    180151.1  Rx         037A  8  D0 00 00 00 00 00 00 00 
  1219)    180151.5  Rx         01F8  4  00 00 00 00 
  1220)    180151.7  Rx         020A  6  F6 15 09 82 18 01 
  1221)    180152.0  Rx         03A2  8  01 00 10 00 00 00 00 00 
  1222)    180152.4  Rx         022B  8  FF FF FF FF FF FF FF FF 
  1223)    180153.1  Rx         0132  6  A7 96 67 FF 02 3F 
  1224)    180153.4  Rx         0401  8  13 2A 54 9D 4D 9D 42 9D 
  1225)    180153.6  Rx         0261  8  00 10 1D 00 9D 4A 40 82 
  1226)    180153.8  Rx         02C1  8  0B 1B 98 00 00 00 00 00 
  1227)    180154.1  Rx         03C2  8  00 55 55 55 00 00 6A 05 
  1228)    180154.3  Rx         040A  8  09 10 00 00 00 00 00 27 
  1229)    180154.6  Rx         0677  8  01 00 00 00 00 00 00 00 
  1230)    180155.5  Rx         0545  8  02 00 06 00 00 00 10 62 
  1231)    180155.8  Rx         03A1  8  C1 FF FF 7D 3D 00 10 49 
  1232)    180156.5  Rx         0129  8  23 25 6D 5E FF 1E FF 3F 
  1233)    180156.8  Rx         0263  8  04 00 00 00 A0 20 00 00 
  1234)    180157.0  Rx         0288  8  01 06 18 40 00 40 61 8A 
  1235)    180157.2  Rx         02B3  8  05 00 00 00 41 81 8D 00 
  1236)    180157.5  Rx         02E8  8  01 01 00 00 06 80 80 F2 
  1237)    180157.8  Rx         0289  8  00 00 00 00 00 00 00 13 
  1238)    180158.0  Rx         0234  8  40 25 03 00 38 00 54 8F 
  1239)    180158.2  Rx         02E1  8  10 21 04 00 10 00 00 04 
  1240)    180158.5  Rx         01D8  8  29 D0 84 46 00 00 00 9C 
  1241)    180158.7  Rx         01E5  8  08 6C 04 00 00 00 00 5E 
  1242)    180159.0  Rx         0359  8  03 00 00 00 FF 01 00 00 
  1243)    180159.1  Rx         0419  1  00 
  1244)    180159.3  Rx         045A  8  FD 07 00 7F 02 00 00 8B 
  1245)    180159.5  Rx         0118  8  D2 66 95 00 32 C8 C0 04 
  1246)    180159.7  Rx         020E  2  11 01 
  1247)    180159.9  Rx         0211  6  A5 1A 70 07 00 01 
  1248)    180160.1  Rx         0266  8  09 00 0D 2C 0D 00 9F 01 
  1249)    180161.4  Rx         02D1  2  FF 01 
  1250)    180161.6  Rx         0709  8  1C 6E 02 24 00 10 02 00 
  1251)    180162.6  Rx         0225  4  55 55 FA 00 
  1252)    180163.1  Rx         0132  6  A1 96 61 FF DB 3E 
  1253)    180163.5  Rx         02D7  5  80 61 86 43 0E 
  1254)    180166.0  Rx         0207  8  00 06 0A 01 04 00 00 00 
  1255)    180166.5  Rx         0129  8  36 26 5D 5E F5 1E FF 3F 
  1256)    180166.8  Rx         0243  8  00 FC CF 4C 9B 44 0D 29 
  1257)    180166.9  Rx         0229  3  41 05 00 
  1258)    180167.1  Rx         02A8  8  01 01 00 00 06 80 D0 02 
  1259)    180167.3  Rx         0249  4  D3 03 00 00 
  1260)    180167.5  Rx         0448  6  20 00 10 10 00 00 
  1261)    180167.8  Rx         054F  8  00 00 00 00 00 00 00 00 
  1262)    180168.0  Rx         06A2  5  00 00 00 00 00 
  1263)    180168.3  Rx         0118  8  14 67 95 00 32 C8 00 05 
  1264)    180168.6  Rx         01D8  8  29 D8 C4 47 00 00 20 05 
  1265)    180168.8  Rx         0283  6  02 04 00 00 41 00 
  1266)    180169.0  Rx         0266  8  0A 00 0D 2C 0E 00 9F 01 
  1267)    180169.3  Rx         01E5  8  08 6C 04 00 00 00 20 7E 
  1268)    180169.5  Rx         0257  8  46 8C 25 05 5C C8 12 01 
  1269)    180169.7  Rx         0261  8  19 00 21 00 1A 4A 5A 26 
  1270)    180170.0  Rx         0381  8  11 00 00 00 00 00 00 00 
  1271)    180170.2  Rx         02C4  8  00 40 00 D2 00 00 00 00 
  1272)    180170.5  Rx         04E2  8  01 EB 07 00 00 00 28 00 
  1273)    180170.7  Rx         0204  8  01 00 00 FF 00 00 00 00 
  1274)    180170.9  Rx         0264  6  2C 00 00 00 E0 01 
  1275)    180171.2  Rx         0224  8  04 08 00 C0 DB 00 10 08 
  1276)    180171.4  Rx         02B4  6  8A 05 16 0F 53 01 
  1277)    180171.6  Rx         02E1  8  39 ED 39 B5 0D 00 00 00 
  1278)    180171.8  Rx         0441  8  62 01 B6 C3 58 00 05 A2 
  1279)    180172.1  Rx         039A  8  34 17 FB 92 FF FD FD 61 
  1280)    180172.5  Rx         03C4  8  12 67 DB 31 70 EE C3 47 
  1281)    180172.7  Rx         0421  7  50 14 00 00 00 D0 48 
  1282)    180173.2  Rx         0132  6  93 96 64 FF E3 3E 
  1283)    180173.4  Rx         0320  8  02 00 00 00 00 00 00 00 
  1284)    180173.7  Rx         0201  8  03 00 00 00 00 00 00 00 
  1285)    180173.9  Rx         02BF  7  00 00 00 00 00 00 01 
  1286)    180174.1  Rx         02C1  8  04 00 00 00 00 00 00 00 
  1287)    180174.3  Rx         039D  5  42 59 21 28 00 
  1288)    180174.5  Rx         0401  8  14 2A 4A 9D 51 9D 51 9D 
  1289)    180174.8  Rx         03C0  8  07 00 00 00 00 00 00 00 
  1290)    180175.0  Rx         0420  7  28 01 40 4B 00 00 04 
  1291)    180175.6  Rx         0262  8  0B 00 A0 F7 00 30 13 12 
  1292)    180176.5  Rx         0129  8  C7 27 4C 5E E9 1E FF 3F 
  1293)    180176.7  Rx         0263  8  E0 43 F6 6A A6 4F 5F 1F 
  1294)    180177.0  Rx         0428  6  20 00 00 10 00 00 
  1295)    180178.5  Rx         01D8  8  29 DE C4 48 00 00 40 2C 
  1296)    180178.7  Rx         01E5  8  08 6C 04 00 00 00 40 9E 
  1297)    180178.9  Rx         01FB  8  05 02 00 00 00 00 00 00 
  1298)    180179.3  Rx         0118  8  45 68 95 00 32 C8 30 05 
  1299)    180179.6  Rx         0266  8  0A 00 0D 2C 0E 00 9F 01 
  1300)    180180.1  Rx         0719  8  01 00 00 00 00 00 00 00 
  1301)    180180.7  Rx         0103  8  22 B3 88 04 72 3E 21 32 
  1302)    180181.6  Rx         0552  8  00 00 00 00 00 00 10 67 
  1303)    180182.0  Rx         0399  3  00 00 00 
  1304)    180182.6  Rx         07AA  8  01 1C 0F 15 0F 01 00 00 
  1305)    180183.1  Rx         0132  6  A5 96 62 FF F3 3E 
  1306)    180184.6  Rx         03A2  8  82 A8 FF 7F 03 00 00 00 
  1307)    180185.5  Rx         02E1  8  02 00 00 00 FF 00 02 00 
  1308)    180185.7  Rx         0261  8  02 2C 50 02 80 5C 61 EB 
  1309)    180186.1  Rx         02F9  8  B0 FB 07 10 00 00 00 00 
  1310)    180186.5  Rx         0129  8  3E 28 3C 5E DE 1E FF 3F 
  1311)    180186.8  Rx         0123  8  01 00 00 00 00 3F 00 00 
  1312)    180187.0  Rx         0243  8  01 FC 40 51 42 00 64 66 
  1313)    180187.5  Rx         0422  6  72 06 00 02 00 00 
  1314)    180187.8  Rx         03AE  8  89 3E 00 08 00 00 C0 90 
  1315)    180188.3  Rx         0118  8  16 69 95 00 32 C8 00 05 
  1316)    180188.5  Rx         01D8  8  29 E4 84 49 00 00 60 13 
  1317)    180188.8  Rx         031A  8  03 00 00 00 00 00 00 20 
  1318)    180189.0  Rx         0266  8  0A 00 0D 2C 0E 00 9F 01 
  1319)    180189.2  Rx         01E5  8  08 6C 04 00 00 00 60 BE 
  1320)    180189.5  Rx         0257  8  4F 8D 25 05 64 C8 12 01 
  1321)    180189.7  Rx         0108  8  C1 3C 13 9A 09 9F 02 25 
  1322)    180189.9  Rx         0126  5  79 B0 1D 64 D1 
  1323)    180190.1  Rx         0221  8  61 05 55 55 01 02 00 36 
  1324)    180190.3  Rx         0128  4  00 00 E4 0A 
  1325)    180190.5  Rx         01D6  8  00 08 04 00 CA C8 0C 08 
  1326)    180190.8  Rx         023E  8  F4 01 3A C0 FA FC CF F4 
  1327)    180191.0  Rx         0227  8  B9 03 14 00 42 00 00 81 
  1328)    180191.3  Rx         0247  8  3D 0F FF 0D 00 FA 01 00 
  1329)    180191.4  Rx         0268  5  2D 0E 79 01 A7 
  1330)    180191.7  Rx         0287  8  37 37 37 38 03 03 01 02 
  1331)    180191.9  Rx         0279  8  B4 DC 0C 01 04 06 65 02 
  1332)    180192.1  Rx         02B6  3  00 B0 01 
  1333)    180192.3  Rx         02D3  8  F1 00 8B 03 22 0D 13 57 
  1334)    180192.5  Rx         0395  8  01 0F 10 46 3A 3A 08 7D 
  1335)    180192.7  Rx         02D3  8  F1 00 8B 03 22 0D 13 57 
  1336)    180193.0  Rx         0397  8  00 00 00 D8 1D 00 00 00 
  1337)    180193.2  Rx         0132  6  92 96 60 FF 06 3F 
  1338)    180193.4  Rx         0372  8  07 04 1B D8 C0 08 46 1F 
  1339)    180193.6  Rx         02C1  8  68 34 FE 00 4C 8E 02 00 
  1340)    180193.9  Rx         02C2  8  55 5B A9 B6 82 C1 12 AA 
  1341)    180194.1  Rx         03A3  8  12 D0 00 00 98 0B FC 01 
  1342)    180194.4  Rx         03AE  8  58 3E 00 08 00 00 D0 6F 
  1343)    180194.6  Rx         03F9  8  01 00 00 00 00 00 00 01 
  1344)    180194.8  Rx         0401  8  15 2A 50 9D 53 9D 53 9D 
  1345)    180195.1  Rx         0545  8  60 03 4E C0 A2 29 2A B0 
  1346)    180195.3  Rx         0666  4  00 00 C8 00 
  1347)    180195.5  Rx         0677  8  02 00 00 00 00 00 00 00 
  1348)    180195.7  Rx         0281  6  14 00 FF 1F 00 01 
  1349)    180195.9  Rx         055A  8  05 00 00 00 00 00 00 00 
  1350)    180196.2  Rx         0405  8  12 46 30 30 31 30 39 30 
  1351)    180196.5  Rx         0129  8  C6 29 2A 5E D2 1E FF 3F 
  1352)    180196.8  Rx         0263  8  D1 5B EE 72 9E 4F 5F 1F 
  1353)    180197.0  Rx         07E8  8  0D F5 EE 88 61 00 00 00 
  1354)    180198.0  Rx         0409  1  00 
  1355)    180198.5  Rx         01D8  8  29 EA 44 4A 00 00 80 FA 
  1356)    180198.7  Rx         01E5  8  08 6C 04 00 00 00 00 5E 
  1357)    180198.9  Rx         0201  8  00 3D 3B 19 00 E4 FF 00 
  1358)    180199.2  Rx         0393  8  03 80 61 00 00 00 00 00 
  1359)    180199.4  Rx         0118  8  07 6A 95 00 33 C8 F0 04 
  1360)    180199.7  Rx         02E1  8  03 6D 66 02 1B 8B 00 00 
  1361)    180199.9  Rx         0266  8  0A 00 0D 2C 0E 00 9F 01 
  1362)    180200.1  Rx         07D5  8  2B 00 70 F6 00 00 00 00 
  1363)    180200.3  Rx         0339  8  01 F1 FE 00 80 03 80 0C 
  1364)    180200.6  Rx         07D5  8  2C 00 3E 00 00 00 00 00 
  1365)    180200.9  Rx         07D5  8  32 00 00 00 00 00 00 00 
  1366)    180201.1  Rx         07D7  8  32 0E 00 00 00 00 00 00 
  1367)    180201.3  Rx         0315  8  18 4B 44 4B 50 47 BF 7D 
  1368)    180201.6  Rx         0261  8  CB 50 0A 00 00 40 75 08 
  1369)    180201.8  Rx         0212  8  59 04 00 00 81 FF 77 31 
  1370)    180202.0  Rx         0252  8  D6 18 4D 71 00 FC 0F 00 
  1371)    180202.2  Rx         022A  4  00 00 39 18 
  1372)    180202.4  Rx         022B  8  FF FF FF FF FF FF FF FF 
  1373)    180202.7  Rx         0292  8  14 23 1C F2 C7 01 00 00 
  1374)    180202.9  Rx         02D2  8  3C 2F B4 4E 3D 06 9E 1E 
  1375)    180203.0  Rx         02F2  2  12 02 
  1376)    180203.3  Rx         0315  8  01 47 47 00 47 48 00 00 
  1377)    180203.5  Rx         0132  6  9A 96 60 FF F7 3E 
  1378)    180203.7  Rx         02E2  8  10 00 00 6B 02 0B 00 00 
  1379)    180204.0  Rx         0315  8  02 00 7F 22 00 00 00 00 
  1380)    180204.2  Rx         0315  8  F3 92 D8 7F D8 00 60 04 
  1381)    180204.4  Rx         03AE  8  38 3E 00 08 00 00 E0 5F 
  1382)    180204.7  Rx         020C  8  1A 58 39 1E 39 01 30 10 
  1383)    180204.9  Rx         0315  8  04 BA 1F 7E 08 47 44 48 
  1384)    180205.2  Rx         03B2  8  29 B3 88 5C 00 25 04 00 
  1385)    180205.4  Rx         03B6  8  44 8E 3B 0D 00 00 60 33 
  1386)    180205.6  Rx         03A1  8  88 4C 0C CA 00 34 22 C0 
  1387)    180205.8  Rx         03C2  8  29 55 00 00 00 00 00 00 
  1388)    180206.1  Rx         03D5  8  4B 4B 4A 4A 4A 2E 08 6C 
  1389)    180206.3  Rx         03FE  8  F2 26 84 10 43 0C 01 E7 
  1390)    180206.6  Rx         0129  8  C8 2A 18 5E C8 1E FF 3F 
  1391)    180206.8  Rx         0243  8  02 FC 13 0F 05 C5 00 00 
  1392)    180207.0  Rx         0308  8  00 01 00 A0 01 80 87 AF 
  1393)    180207.3  Rx         01F9  8  00 00 00 00 00 00 00 00 
  1394)    180207.5  Rx         0400  7  FF E0 17 BF F0 FB 00 
  1395)    180207.8  Rx         0234  8  32 E0 02 FA E8 03 60 F4 
  1396)    180208.0  Rx         0381  8  B2 00 00 00 00 00 4D 00 
  1397)    180208.2  Rx         045A  8  A4 46 C5 C8 5F 23 51 40 
  1398)    180208.4  Rx         0118  8  08 6B 95 00 33 C8 F0 04 
  1399)    180208.7  Rx         031E  8  03 00 00 00 00 00 00 00 
  1400)    180209.0  Rx         01D8  8  29 F0 04 4B 00 00 A0 E1 
  1401)    180209.0  Rx         041D  1  14 
  1402)    180209.3  Rx         0266  8  0A 00 0D 2C 0E 00 9F 01 
  1403)    180209.6  Rx         021D  8  04 00 35 00 00 00 00 00 
  1404)    180209.8  Rx         01E5  8  08 6C 04 00 00 00 20 7E 
  1405)    180209.9  Rx         01FA  3  1A C0 01 
  1406)    180210.2  Rx         0257  8  70 9E 25 05 6C D0 12 01 
  1407)    180210.4  Rx         025D  8  14 41 01 2A 04 F0 00 00 
  1408)    180210.7  Rx         03AA  8  00 00 00 00 00 00 00 00 
  1409)    180210.9  Rx         04E3  8  01 F3 04 00 00 00 28 00 
  1410)    180211.1  Rx         04F3  4  00 00 00 00 
  1411)    180211.3  Rx         05D7  5  50 6E 12 00 02 
  1412)    180211.4  Rx         0213  2  28 3D 
  1413)    180211.6  Rx         0335  8  0A 01 91 30 FC 00 05 00 
  1414)    180211.9  Rx         0253  8  01 61 4F 3F 64 00 2A 04 
  1415)    180212.1  Rx         03A7  8  00 00 00 00 00 00 00 00 
  1416)    180212.3  Rx         0285  8  04 84 99 3B 8C 00 00 00 
  1417)    180212.6  Rx         03B5  8  00 00 00 00 00 00 00 00 
  1418)    180212.8  Rx         0682  8  00 00 00 40 04 04 20 25 
  1419)    180213.1  Rx         03C5  8  00 00 00 00 00 00 00 00 
  1420)    180213.3  Rx         0132  6  9B 96 5B FF D6 3E 
  1421)    180213.5  Rx         02E1  8  FC 1F 1C 3A A0 12 0A 00 
  1422)    180213.7  Rx         02C1  8  21 6B 18 64 02 00 00 00 
  1423)    180214.0  Rx         039D  5  43 5A 21 28 00 
  1424)    180214.1  Rx         0119  4  00 00 00 00 
  1425)    180214.3  Rx         03E5  8  00 00 00 00 00 00 00 00 
  1426)    180214.6  Rx         0401  8  16 2A 53 9D 57 9D 50 9D 
  1427)    180214.8  Rx         0367  8  00 00 00 00 00 00 00 00 
  1428)    180215.1  Rx         0712  8  03 2A E5 0A 07 0B CA 0A 
  1429)    180215.3  Rx         0368  8  00 00 00 00 00 00 00 00 
  1430)    180215.4  Rx         0744  1  AA 
  1431)    180215.6  Rx         0242  3  55 55 86 
  1432)    180215.8  Rx         036B  8  00 00 00 00 00 00 00 00 
  1433)    180216.0  Rx         077A  8  00 9C BF FF 59 10 6F 05 
  1434)    180216.3  Rx         036E  8  00 00 00 00 00 00 00 00 
  1435)    180216.6  Rx         0129  8  FE 2B 06 5E BD 1E FF 3F 
  1436)    180216.8  Rx         0263  8  02 00 E0 07 10 3D 3F 21 
  1437)    180216.9  Rx         0249  4  D3 04 00 00 
  1438)    180217.2  Rx         02B3  8  06 77 B8 5E C7 7F EF E5 
  1439)    180217.4  Rx         0343  8  00 91 68 CE A0 00 00 00 
  1440)    180217.6  Rx         025B  8  D3 80 00 05 CA 8C 60 69 
  1441)    180217.9  Rx         0261  8  C4 FE 1F 50 00 40 84 23 
  1442)    180218.1  Rx         0340  8  01 00 00 00 00 00 00 00 
  1443)    180218.3  Rx         03A2  8  E0 05 F2 FB 04 80 46 6F 
  1444)    180218.6  Rx         01D8  8  29 F6 44 4B 00 00 C0 47 
  1445)    180218.8  Rx         03AE  8  38 3E 00 08 00 00 F1 70 
  1446)    180219.1  Rx         01E5  8  08 6C 04 00 00 00 40 9E 
  1447)    180219.2  Rx         05F3  3  24 E0 21 
  1448)    180219.5  Rx         0118  8  3A 6C 95 00 33 C8 20 05 
  1449)    180219.7  Rx         078A  8  01 00 02 00 68 06 65 06 
  1450)    180219.9  Rx         0266  8  0A 00 0E 2D 0E 00 9F 01 
  1451)    180220.2  Rx         07D5  8  42 F7 00 67 00 00 29 00 
  1452)    180220.4  Rx         07D5  8  43 9E A9 7C 82 3F 00 00 
  1453)    180220.7  Rx         07D5  8  44 71 51 5D 58 47 00 52 
  1454)    180221.0  Rx         07D5  8  46 49 46 4D 45 44 46 46 
  1455)    180221.2  Rx         0439  8  00 00 00 00 00 18 63 02 
  1456)    180221.5  Rx         07D5  8  48 53 51 00 00 40 14 61 
  1457)    180221.7  Rx         0360  8  08 00 00 00 00 00 00 00 
  1458)    180222.0  Rx         0441  8  8E 85 89 00 32 00 08 3F 
  1459)    180222.2  Rx         0545  8  01 00 00 00 00 10 30 8B 
  1460)    180222.7  Rx         03C3  8  55 55 55 01 00 00 00 00 
  1461)    180223.1  Rx         0132  6  9C 96 5D FF CD 3E 
  1462)    180223.5  Rx         0201  8  51 28 98 00 00 00 00 00 
  1463)    180226.5  Rx         0129  8  39 2C F3 5D B3 1E FF 3F 
  1464)    180226.8  Rx         0243  8  03 00 20 00 22 58 13 00 
  1465)    180227.0  Rx         03E8  8  00 00 00 00 00 00 00 00 
  1466)    180227.5  Rx         02E1  8  05 00 00 00 00 40 26 00 
  1467)    180227.8  Rx         0102  8  22 B3 88 02 D2 46 A1 09 
  1468)    180228.3  Rx         0118  8  6B 6D 95 00 33 C8 50 05 
  1469)    180228.5  Rx         0241  7  33 32 D4 8C 0C 55 00 
  1470)    180228.8  Rx         01D8  8  29 FE C4 4B 00 00 E0 EF 
  1471)    180229.0  Rx         01FB  8  00 00 00 00 00 00 00 00 
  1472)    180229.2  Rx         0266  8  0A 00 0E 2C 0E 00 9F 01 
  1473)    180229.5  Rx         01E5  8  08 6C 04 00 00 00 60 BE 
  1474)    180229.7  Rx         0257  8  91 AF 25 05 74 D8 12 01 
  1475)    180230.0  Rx         0553  8  00 00 00 00 00 00 10 68 
  1476)    180230.2  Rx         0719  8  EE B9 00 00 5D 00 00 14 
  1477)    180230.5  Rx         023E  8  F4 01 3A C0 FA FC DF 04 
  1478)    180233.1  Rx         0132  6  90 96 60 FF E0 3E 
  1479)    180233.4  Rx         0401  8  17 2A 51 9D 55 9D 55 9D 
  1480)    180233.6  Rx         0122  8  01 00 00 00 00 3F 00 00 
  1481)    180233.8  Rx         0261  8  05 A2 41 C9 9A 42 90 4B 
  1482)    180234.0  Rx         02C1  8  02 19 06 00 00 D0 92 09 
  1483)    180234.3  Rx         0677  8  03 00 00 00 00 00 00 00 
  1484)    180234.6  Rx         0383  8  B1 18 1A 00 ED 40 C2 10 
  1485)    180236.5  Rx         0129  8  4D 2D E0 5D AA 1E FF 3F 
  1486)    180236.8  Rx         0263  8  03 00 00 00 00 00 00 00 
  1487)    180237.0  Rx         03C8  8  03 00 00 00 00 00 00 00 
  1488)    180237.3  Rx         0379  8  09 00 00 00 03 00 0C 03 
  1489)    180237.5  Rx         07A8  8  02 40 C0 07 00 0F 00 00 
  1490)    180238.5  Rx         01D8  8  29 04 85 4C 00 00 00 D7 
  1491)    180238.7  Rx         01E5  8  08 6C 04 00 00 00 00 5E 
  1492)    180239.4  Rx         0118  8  7C 6E 95 00 33 C8 60 05 
  1493)    180239.6  Rx         0221  8  60 55 55 15 54 51 11 F8 
  1494)    180239.9  Rx         0266  8  0A 00 0E 2D 0E 00 9F 01 
  1495)    180240.1  Rx         0272  8  08 00 0E 31 08 C0 0E 10 
  1496)    180240.4  Rx         02F1  8  10 97 03 6B 14 00 00 00 
  1497)    180240.7  Rx         0423  7  00 00 10 00 00 00 00 
  1498)    180241.5  Rx         02E1  8  66 80 08 00 75 E4 CA 69 
  1499)    180241.9  Rx         0473  8  00 00 03 00 00 00 00 00 
  1500)    180242.1  Rx         03B3  8  10 80 04 30 80 00 B8 88 
  1501)    180242.6  Rx         03AE  8  01 3E 00 08 00 00 01 49 
  1502)    180243.1  Rx         0132  6  97 96 5D FF F4 3E 
  1503)    180243.6  Rx         0113  3  01 97 01 
  1504)    180243.7  Rx         07F4  1  01 
  1505)    180243.9  Rx         07FF  8  08 00 00 01 00 00 00 00 
  1506)    180244.0  Rx         0139  1  00 
  1507)    180244.3  Rx         0318  8  1A 03 25 15 1E 00 2D BD 
  1508)    180244.5  Rx         0458  7  00 00 20 00 00 00 00 
  1509)    180245.5  Rx         0381  8  13 00 A0 04 00 24 FC FF 
  1510)    180245.7  Rx         0282  8  0C 75 B2 09 F0 C4 02 24 
  1511)    180246.6  Rx         0129  8  F9 2E CE 5D A2 1E FF 3F 
  1512)    180246.8  Rx         0228  8  01 06 18 40 00 40 61 2A 
  1513)    180247.0  Rx         0243  8  04 FC 03 F1 79 7C FF FF 
  1514)    180247.2  Rx         02C3  8  55 5B A9 06 80 C1 12 AA 
  1515)    180247.5  Rx         0788  8  0C E5 E1 83 00 00 8E 00 
  1516)    180248.3  Rx         0118  8  5D 6F 95 00 33 C8 40 05 
  1517)    180248.5  Rx         0201  8  02 00 00 00 00 00 00 00 
  1518)    180248.8  Rx         01D8  8  29 0A 05 4D 00 00 20 7E 
  1519)    180249.0  Rx         0266  8  0A 00 0E 2D 0E 00 9F 01 
  1520)    180249.2  Rx         01E5  8  08 6C 04 00 00 00 20 7E 
  1521)    180249.5  Rx         0257  8  8A A0 25 05 7C D8 12 01 
  1522)    180249.7  Rx         0261  8  00 10 1D 00 9D 4A A0 E2 
  1523)    180250.5  Rx         03F5  8  00 00 BB 38 82 0C 00 00 
  1524)    180250.8  Rx         03A2  8  01 00 10 00 00 00 00 00 
  1525)    180251.1  Rx         037A  8  D1 00 00 00 00 00 00 00 
  1526)    180251.5  Rx         01F8  4  00 00 00 00 
  1527)    180252.1  Rx         07AA  8  A2 08 3F FA 55 09 22 00 
  1528)    180252.4  Rx         022B  8  FF FF FF FF FF FF FF FF 
  1529)    180252.6  Rx         03AE  8  DD 3D 00 08 00 00 11 34 
  1530)    180252.7  Rx         0743  1  22 
  1531)    180253.1  Rx         0132  6  92 96 58 FF F2 3E 
