;$FILEVERSION=1.1
;$STARTTIME=46111.6548285532
;
;   Start time: 3/30/2026 15:42:57.187.0
;   Generated by PCAN-View v6.0.0.1040
;
;   Message Number
;   |         Time Offset (ms)
;   |         |        Type
;   |         |        |        ID (hex)
;   |         |        |        |     Data Length
;   |         |        |        |     |   Data Bytes (hex) ...
;   |         |        |        |     |   |
;---+--   ----+----  --+--  ----+---  +  -+ -- -- -- -- -- -- --
     1)    207273.1  Rx         0228  8  01 06 18 4C 00 60 B1 A6 
     2)    207273.4  Rx         0266  8  00 00 06 25 06 00 9F 01 
     3)    207273.6  Rx         0132  6  1C 97 E1 FF F9 3F 
     4)    207273.8  Rx         0401  8  02 2A 90 9D 94 9D 99 9D 
     5)    207274.0  Rx         07D5  8  2B 18 2F F6 00 00 00 00 
     6)    207274.3  Rx         0272  8  08 00 0C 21 08 C0 0E 10 
     7)    207274.5  Rx         07D5  8  2C 3F 3D 00 00 00 00 00 
     8)    207274.8  Rx         07D5  8  32 00 00 00 00 00 00 00 
     9)    207275.0  Rx         0379  8  05 00 A5 2F 80 01 00 00 
    10)    207275.2  Rx         039D  5  22 59 01 28 00 
    11)    207275.4  Rx         07D7  8  32 07 00 00 00 00 00 00 
    12)    207275.7  Rx         0423  7  00 00 10 00 00 00 00 
    13)    207276.9  Rx         02E1  8  05 00 00 00 00 40 26 00 
    14)    207278.0  Rx         03AE  8  F6 3F 00 08 00 00 50 8E 
    15)    207279.9  Rx         0201  8  02 00 00 00 00 00 00 00 
    16)    207280.1  Rx         0282  8  3C CD F2 0A 44 D5 02 24 
    17)    207280.5  Rx         022A  4  00 00 39 18 
    18)    207280.9  Rx         0261  8  EA 2B 5A 02 80 5C 81 FC 
    19)    207281.2  Rx         0709  8  10 00 00 00 00 00 00 00 
    20)    207281.4  Rx         0118  8  87 6F 95 00 23 C8 80 FF 
    21)    207281.6  Rx         0266  8  00 00 06 25 06 00 9F 01 
    22)    207281.7  Rx         0139  1  00 
    23)    207282.0  Rx         0243  8  04 FC 23 F0 F1 7B FF FF 
    24)    207282.2  Rx         0257  8  1F 38 3C 17 04 18 1E 01 
    25)    207282.4  Rx         0129  8  6E 2C FC 5F 03 20 FF 3F 
    26)    207282.7  Rx         01D8  8  29 9A 3F 00 00 00 20 FB 
    27)    207282.9  Rx         01E5  8  18 6C 04 00 00 00 20 8E 
    28)    207283.2  Rx         0288  8  01 06 18 4C 00 60 C1 16 
    29)    207283.4  Rx         02C3  8  55 03 A8 06 80 C1 12 AA 
    30)    207283.6  Rx         0132  6  25 97 DE FF F9 3F 
    31)    207283.9  Rx         02E8  8  01 01 00 00 06 00 60 52 
    32)    207284.1  Rx         03F5  8  00 00 C8 38 82 0C 00 00 
    33)    207284.9  Rx         02C1  8  EB 1A 98 00 00 00 00 00 
    34)    207285.1  Rx         025B  8  D3 80 00 05 CA 8C C0 C9 
    35)    207286.1  Rx         01F8  4  00 00 00 00 
    36)    207286.3  Rx         078A  8  01 00 00 00 20 13 18 0D 
    37)    207286.9  Rx         03A1  8  C1 FF FF 83 3D 00 30 6F 
    38)    207288.1  Rx         03E2  7  02 00 00 00 00 C0 00 
    39)    207288.4  Rx         03C2  8  00 55 55 55 00 00 6A 05 
    40)    207288.8  Rx         037A  8  A1 00 00 00 01 00 00 00 
    41)    207289.1  Rx         03A2  8  D2 A8 FF 7F 03 00 00 00 
    42)    207289.4  Rx         0682  8  00 00 00 40 04 04 A0 A5 
    43)    207289.6  Rx         02E3  7  12 00 00 AA 02 0B 00 
    44)    207289.9  Rx         0545  8  E0 04 53 D0 A1 16 8A 92 
    45)    207290.9  Rx         02E1  8  66 80 08 00 1B E1 CA 69 
    46)    207291.3  Rx         02A8  8  01 01 00 00 06 00 B0 62 
    47)    207291.6  Rx         0234  8  2F 00 03 FA E8 03 40 F2 
    48)    207291.9  Rx         0263  8  04 00 00 00 A0 1C 00 00 
    49)    207292.1  Rx         01D8  8  29 98 3F 00 00 00 40 19 
    50)    207292.3  Rx         0129  8  7C 2D FC 5F 03 20 FF 3F 
    51)    207292.6  Rx         01E5  8  18 6C 04 00 00 00 40 AE 
    52)    207292.8  Rx         0118  8  A8 60 95 00 23 C8 B0 FF 
    53)    207293.0  Rx         0249  4  2A 02 00 00 
    54)    207293.2  Rx         0266  8  00 00 06 25 06 00 9F 01 
    55)    207293.5  Rx         0289  8  00 00 00 00 00 00 00 14 
    56)    207293.7  Rx         0132  6  19 97 DE FF F4 3F 
    57)    207293.9  Rx         02B3  8  CE 2B 5E 01 00 64 64 00 
    58)    207294.1  Rx         02D1  2  FF 01 
    59)    207294.2  Rx         020E  2  17 07 
    60)    207294.4  Rx         0372  8  01 4D 53 03 40 00 30 01 
    61)    207294.7  Rx         0401  8  03 2A 90 9D 86 9D 8A 9D 
    62)    207294.7  Rx         0419  1  00 
    63)    207295.0  Rx         0381  8  18 00 00 00 00 00 00 00 
    64)    207295.2  Rx         0448  6  20 00 10 10 00 00 
    65)    207295.5  Rx         045A  8  FD 07 00 7F 02 00 0A 00 
    66)    207295.8  Rx         0359  8  4A 06 00 00 EF F5 78 E9 
    67)    207296.9  Rx         0261  8  BB 50 0A 00 00 40 95 18 
    68)    207297.6  Rx         0225  4  55 55 FA 00 
    69)    207298.1  Rx         02D7  5  80 A1 58 83 0B 
    70)    207298.3  Rx         023E  8  F4 01 3A C0 FA FC 5F 84 
    71)    207301.2  Rx         0428  6  20 00 00 10 00 00 
    72)    207301.4  Rx         0118  8  99 61 95 00 23 C8 A0 FF 
    73)    207301.7  Rx         0243  8  00 FC CF 8C 9B 64 0D 2C 
    74)    207301.9  Rx         0266  8  00 00 06 25 06 00 9F 01 
    75)    207302.2  Rx         01D8  8  29 96 3F 00 00 00 60 37 
    76)    207302.4  Rx         0129  8  91 2E FC 5F 04 20 FF 3F 
    77)    207302.6  Rx         0257  8  20 39 3C 17 04 18 1E 01 
    78)    207302.9  Rx         01E5  8  18 6C 04 00 00 00 60 CE 
    79)    207303.1  Rx         022B  8  FF FF FF FF FF FF FF FF 
    80)    207303.4  Rx         0441  8  65 01 B6 C3 58 00 0D AD 
    81)    207303.6  Rx         0132  6  1F 97 E2 FF 04 40 
    82)    207303.8  Rx         0283  6  00 04 00 00 41 00 
    83)    207304.0  Rx         0421  7  50 14 00 00 00 D0 48 
    84)    207304.3  Rx         04E2  8  00 30 03 00 00 00 28 00 
    85)    207304.8  Rx         0724  3  04 00 00 
    86)    207305.1  Rx         0201  8  03 00 00 00 00 00 00 00 
    87)    207305.3  Rx         0211  6  B8 1D 70 07 10 01 
    88)    207305.5  Rx         02C1  8  04 00 00 00 00 00 00 00 
    89)    207305.8  Rx         02E1  8  10 21 04 00 10 00 00 04 
    90)    207306.0  Rx         03AE  8  F7 3F 00 08 00 00 60 9F 
    91)    207306.3  Rx         0677  8  04 00 00 00 00 00 00 00 
    92)    207306.5  Rx         0718  7  02 00 00 00 00 00 00 
    93)    207309.1  Rx         0420  7  28 01 40 4B 00 00 07 
    94)    207309.2  Rx         03BB  2  35 0F 
    95)    207309.5  Rx         02F3  8  8E 0E 0B 04 00 20 00 02 
    96)    207309.8  Rx         03C0  8  09 00 00 00 00 00 00 00 
    97)    207310.0  Rx         033A  8  BD A8 C3 64 FE FF 57 61 
    98)    207310.2  Rx         0262  8  0B 00 9F F6 00 F0 52 12 
    99)    207310.4  Rx         0273  8  89 E1 10 40 C8 02 30 01 
   100)    207310.7  Rx         039A  8  FD FD FD FD FD 01 00 02 
   101)    207310.9  Rx         03FD  8  01 00 02 00 00 18 53 80 
   102)    207311.7  Rx         0263  8  E0 43 F6 6A A6 EF 42 1F 
   103)    207312.1  Rx         01D8  8  29 94 3F 00 00 00 80 55 
   104)    207312.3  Rx         01E5  8  18 6C 04 00 00 00 00 6E 
   105)    207312.5  Rx         0129  8  60 2F FC 5F 04 20 FF 3F 
   106)    207312.8  Rx         0118  8  7A 62 95 00 23 C8 80 FF 
   107)    207313.0  Rx         0261  8  C4 FD 8F 4F 00 40 A4 B1 
   108)    207313.3  Rx         01FB  8  05 02 00 00 00 00 00 00 
   109)    207313.5  Rx         0266  8  FE 07 07 26 06 00 9F 01 
   110)    207313.7  Rx         0132  6  23 97 EF FF 2B 40 
   111)    207313.9  Rx         0401  8  04 2A 9F 9D 98 9D 86 9D 
   112)    207314.2  Rx         02C4  8  25 22 00 00 00 00 00 20 
   113)    207314.4  Rx         0204  8  01 00 00 FF 00 00 00 00 
   114)    207314.8  Rx         0264  6  2D 00 00 00 E0 01 
   115)    207315.2  Rx         0224  8  04 08 00 20 DD 00 10 08 
   116)    207315.3  Rx         039D  5  23 5A 01 28 00 
   117)    207315.6  Rx         02B4  6  85 05 24 0F 59 01 
   118)    207315.8  Rx         0103  8  22 B3 88 04 74 40 21 32 
   119)    207316.2  Rx         0552  8  00 00 00 00 00 00 A0 F7 
   120)    207317.8  Rx         0719  8  03 00 00 00 00 00 00 00 
   121)    207318.9  Rx         02E1  8  39 ED 39 B5 0D 00 00 00 
   122)    207319.7  Rx         0207  8  00 00 0A 00 04 00 00 00 
   123)    207320.9  Rx         0221  8  61 05 55 55 01 02 20 56 
   124)    207321.4  Rx         0118  8  DB 63 95 00 23 C8 E0 FF 
   125)    207321.7  Rx         0123  8  00 00 13 12 D2 00 00 00 
   126)    207321.9  Rx         0243  8  01 FC 3E 66 3F 00 63 62 
   127)    207322.2  Rx         0266  8  FC 07 07 26 06 00 9F 01 
   128)    207322.4  Rx         0129  8  85 20 FC 5F 04 20 FF 3F 
   129)    207322.6  Rx         01D8  8  29 92 3F 00 00 00 A0 73 
   130)    207322.9  Rx         0257  8  21 3A 3C 17 04 18 1E 01 
   131)    207323.1  Rx         03A2  8  A0 85 F2 08 05 00 C6 6F 
   132)    207323.3  Rx         01E5  8  18 6C 04 00 00 00 20 8E 
   133)    207323.5  Rx         0132  6  33 97 0A 00 68 40 
   134)    207323.8  Rx         0422  6  72 06 00 02 00 00 
   135)    207324.0  Rx         02F9  8  D0 FB 07 28 00 00 00 00 
   136)    207324.2  Rx         0545  8  01 00 00 00 00 10 90 EB 
   137)    207324.9  Rx         02C1  8  B8 5C FE 00 4C 8E 02 00 
   138)    207326.9  Rx         0281  6  2F 00 FF 1F 00 01 
   139)    207327.6  Rx         03A3  8  14 D0 00 00 98 0B FC 01 
   140)    207328.1  Rx         02C2  8  20 40 C0 4B 01 00 40 CB 
   141)    207328.9  Rx         0261  8  05 A2 33 C9 9A 42 B0 5D 
   142)    207329.9  Rx         0201  8  00 62 62 19 00 E4 FF 00 
   143)    207330.8  Rx         03F9  8  06 00 00 00 00 00 00 00 
   144)    207331.6  Rx         0263  8  D1 5B EE 72 A6 CF 42 1F 
   145)    207332.1  Rx         01D8  8  29 90 FF FF 07 00 C0 57 
   146)    207332.3  Rx         01E5  8  18 6C 04 00 00 00 40 AE 
   147)    207332.5  Rx         0129  8  92 21 FC 5F 04 20 FF 3F 
   148)    207332.8  Rx         0118  8  EB 64 95 00 22 C8 F0 FF 
   149)    207333.0  Rx         02E1  8  02 00 00 00 FF 00 02 00 
   150)    207333.2  Rx         0266  8  FA 07 08 27 07 00 9F 01 
   151)    207333.5  Rx         0381  8  19 00 00 00 00 00 00 00 
   152)    207333.7  Rx         0132  6  31 97 23 00 8B 40 
   153)    207333.9  Rx         0393  8  08 00 0C 21 08 C0 0E 10 
   154)    207334.2  Rx         0401  8  05 2A 9C 9D 99 9D 9D 9D 
   155)    207336.7  Rx         03E9  8  F0 88 02 00 00 00 90 F6 
   156)    207336.9  Rx         03A1  8  88 4C 0C CA 00 30 42 DC 
   157)    207337.9  Rx         0339  8  01 F1 FE 00 80 03 80 0C 
   158)    207338.1  Rx         023E  8  F4 01 3A C0 FA FC 6F 94 
   159)    207338.4  Rx         03A8  8  03 00 00 00 00 00 00 00 
   160)    207338.6  Rx         03C2  8  29 55 00 00 00 00 00 00 
   161)    207339.6  Rx         020C  8  82 58 39 1E 66 01 30 12 
   162)    207339.9  Rx         075D  8  05 00 00 00 00 00 00 00 
   163)    207340.7  Rx         031E  8  00 00 00 00 00 00 00 00 
   164)    207340.9  Rx         06A2  5  00 00 00 00 00 
   165)    207341.2  Rx         021D  8  04 00 35 00 00 00 00 00 
   166)    207341.4  Rx         0118  8  8C 65 95 00 22 C8 90 FF 
   167)    207341.7  Rx         0243  8  02 FC F3 0E 05 0E 00 00 
   168)    207341.9  Rx         0234  8  3E 29 03 40 38 00 54 D1 
   169)    207342.1  Rx         025D  8  14 41 01 2A 04 F0 00 00 
   170)    207342.4  Rx         0129  8  DB 22 FC 5F 04 20 FF 3F 
   171)    207342.6  Rx         0266  8  F9 07 08 27 07 00 9F 01 
   172)    207342.9  Rx         01D8  8  29 8E 3F FC 07 00 E0 B2 
   173)    207343.0  Rx         0229  3  43 04 00 
   174)    207343.3  Rx         0257  8  22 3B 3C 17 04 18 1E 01 
   175)    207343.4  Rx         0249  4  D3 03 00 00 
   176)    207343.6  Rx         0132  6  4B 97 32 00 A7 40 
   177)    207343.8  Rx         01E5  8  18 6C 04 00 00 00 60 CE 
   178)    207344.1  Rx         0330  8  0D FF 00 00 C1 C3 B5 3D 
   179)    207344.2  Rx         01FA  3  1A C0 01 
   180)    207344.4  Rx         041D  1  14 
   181)    207344.6  Rx         0287  8  37 37 36 37 05 03 00 02 
   182)    207344.8  Rx         01F9  8  00 00 00 00 00 00 00 00 
   183)    207345.0  Rx         0261  8  00 10 2B 00 9D 4A C0 10 
   184)    207345.3  Rx         02C1  8  21 63 18 64 02 00 00 00 
   185)    207345.6  Rx         03AE  8  F7 3F 00 08 00 00 70 AF 
   186)    207345.8  Rx         045A  8  A4 48 49 C4 5F 20 50 3E 
   187)    207346.0  Rx         04E3  8  00 A9 02 00 00 00 28 00 
   188)    207346.2  Rx         054F  8  00 00 00 00 00 00 00 00 
   189)    207346.5  Rx         0677  8  00 00 00 00 00 00 00 00 
   190)    207346.9  Rx         02E1  8  03 6D 66 02 1B 93 00 00 
   191)    207347.9  Rx         0409  1  00 
   192)    207348.9  Rx         0340  8  06 00 00 00 00 00 00 00 
   193)    207350.0  Rx         0242  3  55 55 86 
   194)    207351.1  Rx         07AA  8  0A E0 06 E0 06 00 5A 00 
   195)    207351.7  Rx         0343  8  00 91 78 2E A1 00 00 00 
   196)    207351.8  Rx         0119  4  00 00 00 00 
   197)    207352.0  Rx         022B  8  FF FF FF FF FF FF FF FF 
   198)    207352.3  Rx         01D8  8  29 8C BF F8 07 00 00 4C 
   199)    207352.6  Rx         0129  8  CC 23 FC 5F 04 20 FF 3F 
   200)    207352.8  Rx         01E5  8  18 6C 04 00 00 00 00 6E 
   201)    207353.0  Rx         0118  8  AC 66 95 00 22 C8 B0 FE 
   202)    207353.2  Rx         0263  8  02 00 A0 47 0F 3C 3D 21 
   203)    207353.5  Rx         0266  8  F8 07 08 27 08 00 9F 01 
   204)    207353.7  Rx         0132  6  57 97 41 00 D4 40 
   205)    207353.9  Rx         02B3  8  AF 03 29 EA E0 0E 60 06 
   206)    207354.1  Rx         0372  8  02 3C 01 3D 80 01 84 52 
   207)    207354.4  Rx         03E8  8  00 00 00 00 00 00 00 00 
   208)    207354.6  Rx         0227  8  DD 04 31 00 46 00 00 81 
   209)    207354.9  Rx         0247  8  4C 0F FF 10 00 79 02 00 
   210)    207355.1  Rx         0201  8  51 58 98 00 00 00 00 00 
   211)    207355.3  Rx         039D  5  24 5B 01 28 00 
   212)    207355.5  Rx         03A2  8  01 00 10 00 00 00 00 00 
   213)    207355.8  Rx         0400  7  93 20 FC BE EF FB 00 
   214)    207356.0  Rx         0401  8  06 2A 9E 9D 98 9D 9C 9D 
   215)    207356.2  Rx         0360  8  06 00 00 00 00 00 00 00 
   216)    207356.5  Rx         0441  8  85 85 89 00 32 00 10 3E 
   217)    207356.7  Rx         0545  8  02 00 03 00 00 00 A0 EF 
   218)    207356.9  Rx         0727  2  06 00 
   219)    207357.7  Rx         03C3  8  00 00 00 00 00 51 00 00 
   220)    207357.8  Rx         03E3  4  00 00 00 00 
   221)    207358.8  Rx         0439  8  00 00 00 00 00 18 63 02 
   222)    207359.0  Rx         0294  8  14 8D 00 00 00 00 00 00 
   223)    207359.9  Rx         0241  7  5E 5C 94 17 17 55 00 
   224)    207360.2  Rx         03FD  8  02 00 00 00 00 00 00 80 
   225)    207360.9  Rx         02E1  8  FC 1F 0C 1A 9F 03 0A 00 
   226)    207361.1  Rx         0261  8  19 00 DE FF 13 4A DA 5B 
   227)    207361.4  Rx         03C8  8  05 00 00 00 00 00 00 00 
   228)    207361.6  Rx         0118  8  DC 67 95 00 22 C8 E0 FD 
   229)    207361.9  Rx         0243  8  03 00 20 80 24 59 14 00 
   230)    207362.1  Rx         0212  8  59 04 00 00 81 FF 77 31 
   231)    207362.3  Rx         0102  8  22 B3 48 02 D2 46 A1 09 
   232)    207362.6  Rx         0129  8  78 24 FC 5F 03 20 FF 3F 
   233)    207362.8  Rx         0252  8  C8 17 F4 70 00 FC 0F 00 
   234)    207363.0  Rx         0266  8  F7 07 09 28 08 00 9F 01 
   235)    207363.3  Rx         0108  8  5D 5F FC 2B FD A1 0B 25 
   236)    207363.5  Rx         01D8  8  29 8A BF F5 07 00 20 67 
   237)    207363.7  Rx         0126  5  0F B0 1D 7C 7F 
   238)    207363.9  Rx         0132  6  62 97 52 00 EC 40 
   239)    207364.2  Rx         01FB  8  00 00 00 00 00 00 00 00 
   240)    207364.4  Rx         0257  8  23 3C 3C 17 04 18 1E 01 
   241)    207364.5  Rx         0128  4  00 00 E4 0A 
   242)    207364.8  Rx         01E5  8  18 6C 04 00 00 00 20 8E 
   243)    207365.0  Rx         01D6  8  00 08 00 00 CA 09 98 08 
   244)    207365.2  Rx         0268  5  28 09 78 01 A5 
   245)    207365.4  Rx         0279  8  BF DF 0C 01 0C 06 65 02 
   246)    207365.7  Rx         0292  8  1B 3F 7C 72 C9 01 00 00 
   247)    207365.8  Rx         02B6  3  00 B0 01 
   248)    207366.1  Rx         02C1  8  02 19 06 00 00 D0 92 01 
   249)    207366.3  Rx         02D2  8  31 2F B5 4E FA 05 9E 1E 
   250)    207366.4  Rx         02F2  2  12 02 
   251)    207366.7  Rx         0312  8  F8 E4 66 04 46 5D 25 14 
   252)    207366.9  Rx         0352  8  00 00 74 0B FF 08 F9 08 
   253)    207367.1  Rx         0392  8  00 0B 00 00 00 00 00 00 
   254)    207367.4  Rx         0395  8  01 0F 0E 43 3C 3C 07 7D 
   255)    207367.6  Rx         0397  8  01 00 00 D8 1D 00 00 00 
   256)    207367.9  Rx         03B2  8  50 00 00 FE 0B AE 32 1D 
   257)    207368.1  Rx         0553  8  00 00 00 00 00 00 A0 F8 
   258)    207368.3  Rx         0122  8  01 00 00 00 00 3F 00 00 
   259)    207368.6  Rx         0712  8  00 2A C7 0A 88 0A 21 0B 
   260)    207368.8  Rx         0666  4  00 00 C8 00 
   261)    207369.0  Rx         0719  8  14 00 00 00 00 00 00 00 
   262)    207369.2  Rx         055A  8  04 00 00 00 00 00 00 00 
   263)    207369.5  Rx         07A8  8  02 40 C1 07 00 0F 00 00 
   264)    207369.7  Rx         0383  8  BB 18 14 00 3B F0 60 34 
   265)    207370.0  Rx         0405  8  11 33 45 31 45 41 34 48 
   266)    207370.1  Rx         0113  3  01 97 01 
   267)    207370.2  Rx         07F4  1  01 
   268)    207370.5  Rx         07FF  8  02 66 12 04 00 51 86 82 
   269)    207370.7  Rx         0318  8  1A 03 13 14 1E 2E 3F EA 
   270)    207370.9  Rx         02F1  8  02 12 52 01 46 00 00 00 
   271)    207371.2  Rx         0221  8  60 55 55 15 54 51 31 18 
   272)    207371.4  Rx         0381  8  A0 E2 06 90 DD 00 B2 10 
   273)    207371.6  Rx         0458  7  00 00 20 00 00 00 00 
   274)    207371.9  Rx         0263  8  03 00 00 00 00 00 00 00 
   275)    207372.1  Rx         01D8  8  29 88 3F F3 07 00 40 03 
   276)    207372.4  Rx         0129  8  6F 25 FC 5F 03 20 FF 3F 
   277)    207372.6  Rx         01E5  8  18 6C 04 00 00 00 40 AE 
   278)    207372.8  Rx         0228  8  01 06 18 4C 00 60 C1 B6 
   279)    207373.1  Rx         0118  8  9D 68 95 00 22 C8 A0 FD 
   280)    207373.3  Rx         0788  8  00 E5 E1 83 00 00 8A 00 
   281)    207373.5  Rx         0266  8  F6 07 09 28 08 00 9F 01 
   282)    207373.8  Rx         0132  6  6C 97 56 00 E8 40 
   283)    207374.0  Rx         0401  8  07 2A 98 9D 91 9D 9E 9D 
   284)    207374.2  Rx         0272  8  03 80 61 00 00 00 00 00 
   285)    207374.4  Rx         07D5  8  2B 90 0F F6 00 00 00 00 
   286)    207374.7  Rx         07D5  8  2C 3F 3D 00 00 00 00 00 
   287)    207375.0  Rx         02E1  8  05 00 00 00 00 40 26 00 
   288)    207375.2  Rx         0379  8  06 00 AF D1 80 01 00 02 
   289)    207375.4  Rx         07D5  8  32 00 00 00 00 00 00 00 
   290)    207375.6  Rx         0423  7  00 00 10 00 00 00 00 
   291)    207375.9  Rx         07D7  8  32 08 00 00 00 00 00 00 
   292)    207376.9  Rx         0261  8  EA 2B 5A 02 80 5C E1 5C 
   293)    207378.2  Rx         023E  8  F4 01 3A C0 FA FC 7F A4 
   294)    207379.9  Rx         0201  8  02 00 00 00 00 00 00 00 
   295)    207380.2  Rx         0282  8  3C CD F2 0A 44 D5 02 24 
   296)    207380.5  Rx         022A  4  00 00 49 18 
   297)    207381.3  Rx         0288  8  01 06 18 4C 00 60 D1 26 
   298)    207381.5  Rx         0118  8  DE 69 95 00 22 C8 E0 FD 
   299)    207381.7  Rx         0243  8  04 FC 23 F0 F1 7B FF FF 
   300)    207381.8  Rx         0139  1  00 
   301)    207382.1  Rx         0266  8  F6 07 09 28 08 00 9F 01 
   302)    207382.3  Rx         02C3  8  00 00 C0 4B 01 00 80 CB 
   303)    207382.5  Rx         0129  8  6D 26 FC 5F 00 20 FF 3F 
   304)    207382.8  Rx         01D8  8  29 86 FF F0 07 00 60 DE 
   305)    207383.0  Rx         0257  8  1C 3D 3C 17 04 10 1E 01 
   306)    207383.3  Rx         02E8  8  01 01 00 00 06 00 70 62 
   307)    207383.5  Rx         01E5  8  18 6C 04 00 00 00 60 CE 
   308)    207383.7  Rx         0132  6  6A 97 5E 00 0A 41 
   309)    207384.0  Rx         03F5  8  00 00 C8 38 82 0C 00 00 
   310)    207384.9  Rx         02C1  8  EB 1A 98 00 00 00 00 00 
   311)    207385.2  Rx         025B  8  D3 80 00 05 CA 8C D0 D9 
   312)    207385.4  Rx         0677  8  01 00 00 00 00 00 00 00 
   313)    207385.6  Rx         078A  8  01 00 01 00 9C 5D 38 5E 
   314)    207385.9  Rx         03AE  8  F7 3F 00 08 00 00 81 C0 
   315)    207386.1  Rx         01F8  4  00 00 00 00 
   316)    207386.9  Rx         03A1  8  C1 FF FF 7D 3D 00 50 89 
   317)    207388.1  Rx         040A  8  09 10 00 00 00 00 D0 F7 
   318)    207388.4  Rx         03A2  8  D2 A8 FF FF 03 00 00 00 
   319)    207388.6  Rx         03C2  8  00 55 55 55 00 00 6A 05 
   320)    207388.9  Rx         037A  8  D2 00 00 00 00 00 00 00 
   321)    207389.1  Rx         02E1  8  66 80 08 00 1B E1 CA 69 
   322)    207389.3  Rx         0545  8  E0 04 53 00 A2 1C BA F9 
   323)    207389.6  Rx         0682  8  00 00 00 40 04 04 B0 B5 
   324)    207391.3  Rx         02A8  8  01 01 00 00 06 00 C0 72 
   325)    207391.6  Rx         0234  8  31 00 03 FA E8 03 60 14 
   326)    207391.9  Rx         0263  8  04 00 00 00 A0 1C 00 00 
   327)    207392.1  Rx         01D8  8  29 84 3F EF 07 00 80 3B 
   328)    207392.3  Rx         01E5  8  18 6C 04 00 00 00 00 6E 
   329)    207392.5  Rx         0129  8  13 27 FC 5F FF 1F FF 3F 
   330)    207392.8  Rx         0118  8  BE 6A 95 00 21 C8 C0 FD 
   331)    207393.0  Rx         0249  4  D3 04 00 00 
   332)    207393.2  Rx         0261  8  BB 50 0A 00 00 40 F5 78 
   333)    207393.4  Rx         0266  8  F5 07 09 28 09 00 9F 01 
   334)    207393.6  Rx         0132  6  61 97 63 00 04 41 
   335)    207393.9  Rx         0289  8  00 00 00 00 00 00 00 14 
   336)    207394.0  Rx         020E  2  10 00 
   337)    207394.2  Rx         02D1  2  FF 01 
   338)    207394.4  Rx         0401  8  08 2A A6 9D A2 9D A0 9D 
   339)    207394.5  Rx         0419  1  00 
   340)    207394.7  Rx         0448  6  20 00 10 10 00 00 
   341)    207394.9  Rx         045A  8  FD 07 00 7F 02 00 0A 00 
   342)    207395.1  Rx         039D  5  25 5C 01 28 00 
   343)    207395.8  Rx         0359  8  4B 00 00 00 00 00 00 00 
   344)    207396.8  Rx         0407  7  18 0D 00 00 00 00 00 
   345)    207397.6  Rx         0225  4  55 55 FA 00 
   346)    207398.0  Rx         02D7  5  80 A1 58 83 0B 
   347)    207401.2  Rx         0428  6  20 00 00 10 00 00 
   348)    207401.5  Rx         0118  8  7F 6B 95 00 21 C8 80 FD 
   349)    207401.7  Rx         0243  8  00 FC CF 8C 9B 64 0D 2C 
   350)    207401.9  Rx         0266  8  F5 07 09 28 09 00 9F 01 
   351)    207402.2  Rx         01D8  8  29 82 FF ED 07 00 A0 17 
   352)    207402.4  Rx         0129  8  69 28 FC 5F FE 1F FF 3F 
   353)    207402.6  Rx         0257  8  1D 3E 3C 17 04 10 1E 01 
   354)    207402.9  Rx         01E5  8  18 6C 04 00 00 00 20 8E 
   355)    207403.1  Rx         022B  8  FF FF FF FF FF FF FF FF 
   356)    207403.4  Rx         02E1  8  10 21 04 00 10 00 00 04 
   357)    207403.5  Rx         0132  6  69 97 62 00 05 41 
   358)    207403.8  Rx         0283  6  01 04 00 00 41 00 
   359)    207404.0  Rx         0421  7  50 14 00 00 00 D0 48 
   360)    207404.2  Rx         0441  8  66 01 B6 C3 58 00 15 B6 
   361)    207404.5  Rx         04E2  8  01 EE 07 00 00 00 28 00 
   362)    207404.9  Rx         02C1  8  04 00 00 00 00 00 00 00 
   363)    207405.2  Rx         0201  8  03 00 00 00 00 00 00 00 
   364)    207405.4  Rx         0211  6  B9 1E 70 07 10 01 
   365)    207405.6  Rx         02BF  7  00 00 00 00 00 00 01 
   366)    207408.2  Rx         03AE  8  F6 3F 00 08 00 00 91 CF 
   367)    207408.9  Rx         0261  8  C4 FD 8F 4F 00 40 04 11 
   368)    207409.1  Rx         0381  8  61 55 00 18 9F 9E 9E 00 
   369)    207409.3  Rx         0420  7  28 01 40 4B 00 80 07 
   370)    207409.6  Rx         061D  8  02 00 33 4E 15 45 00 00 
   371)    207409.9  Rx         03C0  8  0A 00 00 00 00 00 00 00 
   372)    207410.1  Rx         0238  8  28 27 48 57 1E 00 22 68 
   373)    207410.3  Rx         0262  8  0B 00 9F F6 00 F0 52 12 
   374)    207410.5  Rx         039A  8  3C 13 FB 92 FF FD FD 61 
   375)    207411.6  Rx         0263  8  E0 43 F6 6A A6 EF 42 1F 
   376)    207411.9  Rx         02B3  8  10 00 00 00 00 07 00 00 
   377)    207412.2  Rx         01D8  8  29 80 7F ED 07 00 C0 B5 
   378)    207412.4  Rx         0129  8  6A 29 FB 5F 00 20 FF 3F 
   379)    207412.6  Rx         01E5  8  18 6C 04 00 00 00 40 AE 
   380)    207413.0  Rx         0118  8  8F 6C 95 00 20 C8 90 FD 
   381)    207413.2  Rx         01FB  8  05 02 00 00 00 00 00 00 
   382)    207413.4  Rx         0266  8  F6 07 09 28 08 00 9F 01 
   383)    207413.7  Rx         0132  6  62 97 62 00 0C 41 
   384)    207413.9  Rx         0372  8  03 00 05 50 00 01 00 00 
   385)    207414.1  Rx         02C4  8  06 F0 93 6E CA 38 15 00 
   386)    207414.3  Rx         0401  8  09 2A 9D 9D A0 9D 9D 9D 
   387)    207414.6  Rx         0204  8  01 00 00 FF 00 00 00 00 
   388)    207414.8  Rx         0264  6  2B 00 00 00 E0 01 
   389)    207415.1  Rx         0224  8  04 08 00 20 DD 00 10 08 
   390)    207415.4  Rx         02B4  6  85 05 2C 0F 50 01 
   391)    207415.7  Rx         0103  8  22 B3 88 04 74 40 21 32 
   392)    207416.1  Rx         0552  8  00 00 00 00 00 00 B0 07 
   393)    207416.9  Rx         02E1  8  39 ED 39 B5 0D 00 00 00 
   394)    207417.8  Rx         0719  8  15 6B 32 75 CD 00 00 00 
   395)    207418.2  Rx         023E  8  F4 01 3A C0 FA FC 8F B4 
   396)    207419.2  Rx         0207  8  00 00 08 00 04 00 00 00 
   397)    207420.9  Rx         0221  8  61 05 55 55 01 02 40 76 
   398)    207421.2  Rx         03A2  8  A0 05 F2 F9 04 00 C6 6F 
   399)    207421.4  Rx         0118  8  3F 6D 95 00 1F C8 40 FD 
   400)    207421.7  Rx         0123  8  01 00 00 00 00 3F 00 00 
   401)    207421.9  Rx         0243  8  01 FC 3E 66 3F 00 63 62 
   402)    207422.1  Rx         0266  8  F6 07 08 27 08 00 9F 01 
   403)    207422.4  Rx         0129  8  DC 2A FB 5F FF 1F FF 3F 
   404)    207422.6  Rx         01D8  8  29 7C 3F ED 07 00 E0 91 
   405)    207422.9  Rx         0257  8  0E 2F 3C 17 04 10 1E 01 
   406)    207423.1  Rx         0422  6  72 06 00 02 00 00 
   407)    207423.3  Rx         01E5  8  18 6C 04 00 00 00 60 CE 
   408)    207423.5  Rx         0132  6  65 97 5B 00 F2 40 
   409)    207423.7  Rx         031A  8  03 00 00 00 00 00 D0 F0 
   410)    207424.0  Rx         02F9  8  D0 FB 07 00 FF FF FF FF 
   411)    207424.2  Rx         0545  8  01 00 00 00 00 10 C0 1B 
   412)    207424.9  Rx         0261  8  05 A2 33 C9 9A 42 10 BD 
   413)    207425.1  Rx         02C1  8  B8 5C FE 00 4C 8E 02 00 
   414)    207425.4  Rx         0677  8  02 00 00 00 00 00 00 00 
   415)    207426.9  Rx         0281  6  2E 00 FF 1F 00 01 
   416)    207427.7  Rx         03A3  8  0E D0 00 00 98 0B FC 01 
   417)    207428.1  Rx         02C2  8  55 5B A9 B6 82 C1 12 AA 
   418)    207429.9  Rx         0201  8  00 62 62 1A 00 E4 FF 00 
   419)    207430.8  Rx         03F9  8  07 00 00 00 00 00 00 00 
   420)    207431.1  Rx         02E1  8  02 00 00 00 FF 00 02 00 
   421)    207431.3  Rx         07AA  8  0B 56 00 29 51 00 3C 00 
   422)    207431.5  Rx         0308  8  00 01 00 A0 01 80 C7 EF 
   423)    207431.8  Rx         0263  8  D1 5B EE 72 A6 CF 42 1F 
   424)    207432.0  Rx         01D8  8  29 7A 3F ED 07 00 00 AF 
   425)    207432.3  Rx         01E5  8  18 6C 04 00 00 00 00 6E 
   426)    207432.5  Rx         0129  8  74 2B FA 5F FE 1F FF 3F 
   427)    207433.0  Rx         0118  8  50 6E 95 00 1F C8 50 FD 
   428)    207433.2  Rx         0266  8  F7 07 09 28 08 00 9F 01 
   429)    207433.5  Rx         0132  6  5C 97 52 00 D5 40 
   430)    207433.8  Rx         0320  8  01 01 00 00 00 00 00 00 
   431)    207434.0  Rx         0393  8  03 80 61 00 00 00 00 00 
   432)    207434.2  Rx         0401  8  0A 2A A0 9D 9E 9D 9F 9D 
   433)    207435.2  Rx         039D  5  26 5D 01 28 00 
   434)    207436.9  Rx         03A1  8  88 4C 0C CA 00 30 62 FC 
   435)    207437.9  Rx         0339  8  01 F1 FE 00 80 03 80 0C 
   436)    207438.1  Rx         0726  3  09 00 00 
   437)    207438.3  Rx         02E2  8  01 00 00 2B 02 0B 00 00 
   438)    207438.5  Rx         03C2  8  29 55 00 00 00 00 00 00 
   439)    207439.6  Rx         020C  8  81 58 39 1E 66 01 30 12 
   440)    207439.9  Rx         031E  8  01 00 00 00 00 00 00 00 
   441)    207440.5  Rx         021D  8  04 00 35 00 00 00 00 00 
   442)    207440.8  Rx         06A2  5  00 00 00 00 00 
   443)    207441.0  Rx         025D  8  14 41 01 2A 04 F0 00 00 
   444)    207441.3  Rx         0261  8  00 10 2A 00 9D 4A 20 6F 
   445)    207441.5  Rx         0118  8  F0 6F 95 00 1E C8 F0 FD 
   446)    207441.7  Rx         0234  8  3F 29 03 40 38 00 74 F2 
   447)    207442.0  Rx         0243  8  02 FC F3 0E 05 0E 00 00 
   448)    207442.2  Rx         0266  8  F7 07 08 27 08 00 9F 01 
   449)    207442.5  Rx         0129  8  14 2C FA 5F FE 1F FF 3F 
   450)    207442.7  Rx         01D8  8  29 78 BF ED 07 00 20 4D 
   451)    207442.8  Rx         0229  3  41 05 00 
   452)    207443.1  Rx         0257  8  FF 20 3C 17 04 10 1E 01 
   453)    207443.3  Rx         01E5  8  18 6C 04 00 00 00 20 8E 
   454)    207443.5  Rx         0132  6  5A 97 3F 00 BE 40 
   455)    207443.7  Rx         0249  4  83 05 00 00 
   456)    207443.8  Rx         041D  1  14 
   457)    207444.0  Rx         045A  8  A4 48 49 C4 5F 20 50 3E 
   458)    207444.2  Rx         01FA  3  1A C0 01 
   459)    207444.4  Rx         0287  8  37 37 36 37 07 03 00 01 
   460)    207444.7  Rx         054F  8  00 00 00 00 00 00 00 00 
   461)    207444.9  Rx         01F9  8  00 00 00 00 00 00 00 00 
   462)    207445.1  Rx         02C1  8  21 63 18 64 02 00 00 00 
   463)    207445.4  Rx         02E1  8  03 6D 66 02 1B 93 00 00 
   464)    207445.7  Rx         04E3  8  01 F3 04 00 00 00 28 00 
   465)    207446.9  Rx         0381  8  22 A0 F8 77 41 20 00 00 
   466)    207448.3  Rx         03AE  8  F6 3F 00 08 00 00 A1 DF 
   467)    207448.6  Rx         0409  1  00 
   468)    207448.9  Rx         0340  8  07 00 00 00 00 00 00 00 
   469)    207450.0  Rx         0242  3  55 55 86 
   470)    207451.6  Rx         0343  8  00 91 78 1E A1 00 00 00 
   471)    207451.8  Rx         0119  4  00 00 00 00 
   472)    207452.1  Rx         01D8  8  29 74 BF ED 07 00 40 69 
   473)    207452.3  Rx         01E5  8  18 6C 04 00 00 00 40 AE 
   474)    207452.5  Rx         0129  8  DE 2D FA 5F FD 1F FF 3F 
   475)    207452.8  Rx         0118  8  21 60 95 00 1D C8 30 FE 
   476)    207453.0  Rx         022B  8  FF FF FF FF FF FF FF FF 
   477)    207453.3  Rx         0263  8  02 00 A0 47 0F 3C 3D 21 
   478)    207453.5  Rx         0266  8  F7 07 08 27 08 00 9F 01 
   479)    207453.7  Rx         0132  6  61 97 40 00 C1 40 
   480)    207453.9  Rx         03E8  8  01 00 00 00 00 00 00 00 
   481)    207454.2  Rx         03A2  8  01 00 10 00 00 00 00 00 
   482)    207454.4  Rx         0227  8  D7 04 30 00 46 00 00 81 
   483)    207454.7  Rx         0247  8  4E 0F FF 10 00 78 02 00 
   484)    207454.9  Rx         0400  7  93 20 FC BE EF FB 00 
   485)    207455.1  Rx         0201  8  51 58 98 00 00 00 00 00 
   486)    207455.3  Rx         0401  8  0B 2A 9D 9D 8E 9D 8A 9D 
   487)    207455.6  Rx         0441  8  85 85 89 00 32 00 18 46 
   488)    207455.8  Rx         0545  8  02 00 03 00 00 00 D0 1F 
   489)    207456.2  Rx         0360  8  07 00 00 00 00 00 00 00 
   490)    207456.7  Rx         0748  5  2B 20 0A 00 00 
   491)    207456.9  Rx         0261  8  19 00 D9 FF 13 4A 3A B6 
   492)    207457.7  Rx         03C3  8  55 55 55 01 00 00 00 00 
   493)    207458.2  Rx         023E  8  F4 01 3A C0 FA FC 9F C4 
   494)    207458.8  Rx         0439  8  00 00 00 00 00 18 63 02 
   495)    207459.1  Rx         02E1  8  FC 1F 0D 1A 9F FE 09 00 
   496)    207459.1  Rx         01BB  1  02 
   497)    207459.4  Rx         0284  8  30 00 00 00 40 08 20 1E 
   498)    207459.9  Rx         0241  7  5E 5C 94 17 17 55 00 
   499)    207461.3  Rx         03C8  8  06 00 00 00 00 00 00 00 
   500)    207461.5  Rx         0118  8  F1 61 95 00 1C C8 00 FE 
   501)    207461.7  Rx         0243  8  03 00 20 80 24 59 14 00 
   502)    207462.0  Rx         0266  8  F6 07 08 27 08 00 9F 01 
   503)    207462.2  Rx         0102  8  22 B3 48 02 D2 46 A1 09 
   504)    207462.5  Rx         0129  8  01 2E FA 5F FD 1F FF 3F 
   505)    207462.7  Rx         01D8  8  29 70 BF ED 07 00 60 85 
   506)    207462.9  Rx         0212  8  59 04 00 00 81 FF 77 31 
   507)    207463.2  Rx         0252  8  C8 17 F4 70 00 FC 0F 00 
   508)    207463.4  Rx         01FB  8  00 00 00 00 00 00 00 00 
   509)    207463.7  Rx         0257  8  00 21 3C 17 04 10 1E 01 
   510)    207463.9  Rx         0108  8  CE 70 FB B3 FD 7A 0B 25 
   511)    207464.1  Rx         0132  6  6B 97 51 00 EF 40 
   512)    207464.3  Rx         01E5  8  18 6C 04 00 00 00 60 CE 
   513)    207464.5  Rx         0126  5  1B B0 1D 04 13 
   514)    207464.6  Rx         0128  4  00 00 E4 0A 
   515)    207464.9  Rx         0292  8  1B 3F 7C 72 C9 01 00 00 
   516)    207465.2  Rx         01D6  8  00 08 00 00 CA 09 98 08 
   517)    207465.3  Rx         0268  5  27 08 78 01 A5 
   518)    207465.5  Rx         0279  8  B0 D0 0C 01 0C 06 65 02 
   519)    207465.7  Rx         02B6  3  00 B0 01 
   520)    207465.9  Rx         02C1  8  02 19 06 00 00 D0 92 01 
   521)    207466.2  Rx         02D2  8  2C 2F B7 4E FA 05 9E 1E 
   522)    207466.3  Rx         02F2  2  12 02 
   523)    207466.5  Rx         0395  8  01 0F 0E 43 3C 3C 07 7D 
   524)    207466.8  Rx         0397  8  01 00 00 D8 1D 00 00 00 
   525)    207467.0  Rx         03AE  8  F5 3F 00 08 00 00 B1 EE 
   526)    207467.2  Rx         0553  8  00 00 00 00 00 00 B0 08 
   527)    207467.5  Rx         0677  8  03 00 00 00 00 00 00 00 
   528)    207467.7  Rx         0712  8  01 2A 7A 0A 9B 0A BD 0A 
   529)    207468.0  Rx         0719  8  16 00 00 00 00 00 00 00 
   530)    207468.2  Rx         0122  8  00 00 13 12 D2 00 00 00 
   531)    207468.4  Rx         07A8  8  04 E5 E1 83 00 00 82 00 
   532)    207468.7  Rx         0113  3  01 97 01 
   533)    207468.8  Rx         07F4  1  01 
   534)    207469.1  Rx         07FF  8  03 00 08 08 01 01 1F 00 
   535)    207469.3  Rx         0318  8  1A 03 13 14 1E 2E 21 CC 
   536)    207469.6  Rx         0458  7  00 00 20 00 00 00 00 
   537)    207469.8  Rx         0383  8  BB 18 14 00 3B F0 60 34 
   538)    207470.9  Rx         02F1  8  03 12 4B 01 46 00 01 00 
   539)    207471.1  Rx         0221  8  60 55 55 15 54 51 51 38 
   540)    207471.4  Rx         0788  8  01 00 00 00 FF A1 F8 13 
   541)    207471.7  Rx         0263  8  03 00 00 00 00 00 00 00 
   542)    207471.9  Rx         02B3  8  00 7C 90 90 77 00 00 00 
   543)    207472.2  Rx         01D8  8  29 6C 7F ED 07 00 80 61 
   544)    207472.4  Rx         0129  8  F0 2F FA 5F FD 1F FF 3F 
   545)    207472.6  Rx         01E5  8  18 6C 04 00 00 00 00 6E 
   546)    207472.9  Rx         0228  8  01 06 18 4C 00 60 D1 C6 
   547)    207473.1  Rx         0118  8  F1 62 95 00 1B C8 00 FE 
   548)    207473.3  Rx         0261  8  EA 2B 5A 02 80 5C 41 BC 
   549)    207473.6  Rx         0132  6  77 97 5C 00 05 41 
   550)    207473.8  Rx         0266  8  F6 07 08 27 08 00 9F 01 
   551)    207474.0  Rx         02E1  8  05 00 00 00 00 40 26 00 
   552)    207474.2  Rx         0272  8  08 00 0D 19 08 C0 0E 10 
   553)    207474.5  Rx         0372  8  04 00 00 00 00 00 90 11 
   554)    207474.7  Rx         0401  8  0C 2A 90 9D E4 9C 97 9D 
   555)    207475.0  Rx         0379  8  07 A0 D2 12 0C C0 14 04 
   556)    207475.2  Rx         07D5  8  2B B1 0F F6 00 00 00 00 
   557)    207475.4  Rx         039D  5  27 5E 01 28 00 
   558)    207475.6  Rx         07D5  8  2C 3F 3D 00 00 00 00 00 
   559)    207475.9  Rx         0423  7  00 00 10 00 00 00 00 
   560)    207476.1  Rx         07D5  8  32 00 00 00 00 00 00 00 
   561)    207476.3  Rx         07D7  8  32 09 00 00 00 00 00 00 
   562)    207477.0  Rx         03AE  8  F5 3F 00 08 00 00 C0 FD 
   563)    207479.9  Rx         0201  8  02 00 00 00 00 00 00 00 
   564)    207480.1  Rx         0282  8  3C CD 42 0B 44 D5 02 24 
   565)    207480.5  Rx         022A  4  00 00 49 18 
   566)    207481.2  Rx         0288  8  01 06 18 4C 00 60 E1 36 
   567)    207481.5  Rx         0118  8  12 63 95 00 1B C8 20 FE 
   568)    207481.8  Rx         0243  8  04 FC 23 F0 F1 7B FF FF 
   569)    207481.8  Rx         0139  1  00 
   570)    207482.1  Rx         0266  8  F6 07 09 27 08 00 9F 01 
   571)    207482.3  Rx         0129  8  8B 20 F9 5F FC 1F FF 3F 
   572)    207482.6  Rx         01D8  8  29 68 3F ED 07 00 A0 3D 
   573)    207482.8  Rx         0257  8  F9 22 3C 17 04 08 1E 01 
   574)    207483.0  Rx         02C3  8  55 03 A8 06 80 C1 12 AA 
   575)    207483.3  Rx         01E5  8  18 6C 04 00 00 00 20 8E 
   576)    207483.5  Rx         02E8  8  01 01 00 00 06 00 80 72 
   577)    207483.7  Rx         0132  6  71 97 5D 00 ED 40 
   578)    207484.0  Rx         03F5  8  00 00 C8 38 82 0C 00 00 
   579)    207484.9  Rx         02C1  8  EB 1A 98 00 00 00 00 00 
   580)    207485.1  Rx         025B  8  D3 80 00 05 CA 8C E0 E9 
   581)    207485.4  Rx         0381  8  A3 80 3D 00 4C D1 04 00 
   582)    207485.6  Rx         078A  8  01 00 02 00 66 06 64 06 
   583)    207486.1  Rx         01F8  4  00 00 00 00 
   584)    207486.9  Rx         02E1  8  66 80 08 00 1B E1 CA 69 
   585)    207487.1  Rx         03A1  8  C1 FF FF 87 3D 00 70 B3 
   586)    207487.4  Rx         03A2  8  32 A9 FF 7F 03 00 00 00 
   587)    207487.9  Rx         0545  8  90 04 53 00 A2 1C EA D9 
   588)    207488.2  Rx         03E2  7  02 00 00 00 00 C0 00 
   589)    207488.4  Rx         03C2  8  00 55 55 55 00 00 6A 05 
   590)    207488.8  Rx         037A  8  7B 00 00 00 00 00 00 00 
   591)    207489.1  Rx         0261  8  BB 50 0A 00 00 40 55 D8 
   592)    207489.5  Rx         0682  8  00 00 00 40 04 04 C0 C5 
   593)    207489.7  Rx         02E3  7  03 00 00 1A 02 0B 00 
   594)    207491.3  Rx         02A8  8  01 01 00 00 06 00 D0 82 
   595)    207491.6  Rx         0234  8  2F 00 03 FA E8 03 80 32 
   596)    207491.8  Rx         0263  8  04 00 00 00 A0 1C 00 00 
   597)    207492.1  Rx         01D8  8  29 64 FF EC 07 00 C0 18 
   598)    207492.3  Rx         01E5  8  18 6C 04 00 00 00 40 AE 
   599)    207492.5  Rx         0129  8  9C 21 F9 5F FC 1F FF 3F 
   600)    207492.8  Rx         0118  8  F3 64 95 00 1B C8 00 FE 
   601)    207492.9  Rx         0249  4  4C 06 00 00 
   602)    207493.2  Rx         0266  8  F6 07 08 27 09 00 9F 01 
   603)    207493.4  Rx         0289  8  00 00 00 00 00 00 00 14 
   604)    207493.6  Rx         0132  6  6D 97 5D 00 F8 40 
   605)    207493.7  Rx         02D1  2  FF 01 
   606)    207494.0  Rx         0401  8  0D 2A 8C 9D 88 9D 85 9D 
   607)    207494.1  Rx         020E  2  11 01 
   608)    207494.3  Rx         0419  1  00 
   609)    207494.4  Rx         0448  6  20 00 10 10 00 00 
   610)    207494.7  Rx         045A  8  FD 07 00 7F 02 00 0A 00 
   611)    207495.8  Rx         0359  8  4C EB C8 E3 B2 9C 47 91 
   612)    207497.6  Rx         0225  4  55 55 FA 00 
   613)    207497.9  Rx         023E  8  F4 01 3A C0 FA FC AF D4 
   614)    207498.1  Rx         02D7  5  80 A1 58 83 0B 
   615)    207500.6  Rx         07AA  8  0C 00 00 00 00 00 00 00 
   616)    207500.9  Rx         02E1  8  10 21 04 00 10 00 00 04 
   617)    207501.3  Rx         0428  6  20 00 00 10 00 00 
   618)    207501.5  Rx         0118  8  62 65 95 00 1A C8 70 FD 
   619)    207501.7  Rx         0243  8  00 FC CF 8C 9B 64 0D 2C 
   620)    207501.9  Rx         0266  8  F6 07 09 28 09 00 9F 01 
   621)    207502.2  Rx         01D8  8  29 5E BF EC 07 00 E0 F2 
   622)    207502.4  Rx         0129  8  57 22 FA 5F 00 20 FF 3F 
   623)    207502.7  Rx         0257  8  EA 13 3C 17 04 08 1E 01 
   624)    207502.9  Rx         01E5  8  18 6C 04 00 00 00 60 CE 
   625)    207503.1  Rx         022B  8  FF FF FF FF FF FF FF FF 
   626)    207503.4  Rx         0441  8  66 01 B6 C3 58 00 1D BE 
   627)    207503.6  Rx         0132  6  6F 97 61 00 09 41 
   628)    207503.8  Rx         0283  6  01 04 00 00 41 00 
   629)    207504.0  Rx         0421  7  50 14 00 00 00 D0 48 
   630)    207504.2  Rx         04E2  8  02 3F 02 00 00 00 28 00 
   631)    207504.9  Rx         0321  8  1F 66 A8 8E 01 87 40 A7 
   632)    207505.2  Rx         0201  8  03 00 00 00 00 00 00 00 
   633)    207505.4  Rx         0211  6  BA 1F 70 07 10 01 
   634)    207505.6  Rx         0261  8  C4 FD 8F 4F 00 40 64 71 
   635)    207505.9  Rx         02C1  8  04 00 00 00 00 00 00 00 
   636)    207506.1  Rx         0677  8  04 00 00 00 00 00 00 00 
   637)    207506.3  Rx         0718  7  03 00 00 00 00 00 00 
   638)    207509.0  Rx         0420  7  28 01 40 4B 00 00 00 
   639)    207509.3  Rx         0285  8  41 05 EF 01 04 00 34 00 
   640)    207509.4  Rx         0286  5  EF F5 78 E9 37 
   641)    207509.7  Rx         03C0  8  00 00 00 00 00 00 00 00 
   642)    207509.9  Rx         039A  8  FD FD FD FD FD 01 00 02 
   643)    207510.2  Rx         0262  8  0B 00 9F F6 00 F0 52 12 
   644)    207511.7  Rx         0263  8  E0 43 F6 6A A6 EF 42 1F 
   645)    207512.0  Rx         01D8  8  29 58 3F EC 07 00 00 8C 
   646)    207512.3  Rx         01E5  8  18 6C 04 00 00 00 00 6E 
   647)    207512.6  Rx         0129  8  40 23 FA 5F 00 20 FF 3F 
   648)    207512.8  Rx         0118  8  04 66 95 00 1A C8 10 FE 
   649)    207513.0  Rx         0266  8  F5 07 09 27 09 00 9F 01 
   650)    207513.2  Rx         01FB  8  05 02 00 00 00 00 00 00 
   651)    207513.5  Rx         0132  6  70 97 68 00 12 41 
   652)    207513.7  Rx         0401  8  0E 2A 95 9D 88 9D 94 9D 
   653)    207514.0  Rx         02C4  8  27 08 B9 90 81 0C 3A 07 
   654)    207514.5  Rx         0204  8  01 00 00 FF 00 00 00 00 
   655)    207514.7  Rx         0264  6  2C 00 00 00 E0 01 
   656)    207515.0  Rx         02E1  8  39 ED 39 B5 0D 00 00 00 
   657)    207515.2  Rx         0224  8  04 08 00 20 DD 00 10 08 
   658)    207515.4  Rx         039D  5  28 5F 01 28 00 
   659)    207515.6  Rx         02B4  6  85 05 2C 0F 57 01 
   660)    207515.8  Rx         0103  8  22 B3 88 04 74 3E 21 32 
   661)    207516.2  Rx         0552  8  00 00 00 00 00 00 C0 17 
   662)    207517.8  Rx         043B  8  02 7F 00 FF 00 00 00 00 
   663)    207518.1  Rx         034A  8  01 00 00 00 00 00 00 20 
   664)    207518.3  Rx         03AE  8  F5 3F 00 08 00 00 D0 0D 
   665)    207518.5  Rx         0719  8  17 00 00 00 00 00 00 00 
   666)    207518.8  Rx         0207  8  00 02 08 00 05 00 00 00 
   667)    207520.1  Rx         03A2  8  E0 45 F3 08 05 00 C6 6F 
   668)    207520.9  Rx         0261  8  05 A2 33 C9 9A 42 70 1D 
   669)    207521.1  Rx         0221  8  61 05 55 55 01 02 60 96 
   670)    207521.4  Rx         0545  8  01 00 00 00 00 10 F0 4B 
   671)    207521.6  Rx         0118  8  55 67 95 00 1A C8 60 FE 
   672)    207521.9  Rx         0123  8  00 00 13 12 D2 00 00 00 
   673)    207522.1  Rx         0243  8  01 FC 40 66 3E 00 63 62 
   674)    207522.3  Rx         0129  8  6B 24 FA 5F 01 20 FF 3F 
   675)    207522.5  Rx         0266  8  F4 07 0A 28 09 00 9F 01 
   676)    207522.8  Rx         01D8  8  29 52 7F EB 07 00 20 E5 
   677)    207523.1  Rx         0381  8  04 00 00 00 00 00 00 00 
   678)    207523.3  Rx         0257  8  EB 14 3C 17 04 08 1E 01 
   679)    207523.5  Rx         01E5  8  18 6C 04 00 00 00 20 8E 
   680)    207523.7  Rx         0132  6  7F 97 70 00 2A 41 
   681)    207524.0  Rx         02F9  8  D0 FB 07 08 EF F5 78 E9 
   682)    207524.2  Rx         0422  6  72 06 00 02 00 00 
   683)    207524.4  Rx         070B  8  04 1A 20 06 06 0B 0C 1B 
   684)    207524.9  Rx         02C1  8  B8 5C FE 00 4C 8E 02 00 
   685)    207526.9  Rx         0281  6  2E 00 FF 1F 00 01 
   686)    207527.7  Rx         03A3  8  14 D0 00 00 98 0B FC 01 
   687)    207528.2  Rx         02C2  8  20 40 C0 4B 01 00 40 CB 
   688)    207528.9  Rx         02E1  8  02 00 00 00 FF 00 02 00 
   689)    207529.9  Rx         0201  8  00 62 62 19 00 E4 FF 00 
   690)    207530.8  Rx         03F9  8  08 00 00 00 00 00 00 00 
   691)    207531.7  Rx         0263  8  D1 5B EE 72 A6 CF 42 1F 
   692)    207531.9  Rx         02B3  8  01 93 91 8B 84 88 92 7C 
   693)    207532.1  Rx         01D8  8  29 4C BF EA 07 00 40 3E 
   694)    207532.4  Rx         0129  8  7C 25 FA 5F 01 20 FF 3F 
   695)    207532.6  Rx         01E5  8  18 6C 04 00 00 00 40 AE 
   696)    207532.8  Rx         0118  8  16 68 95 00 1A C8 20 FE 
   697)    207533.1  Rx         0266  8  F4 07 09 28 09 00 9F 01 
   698)    207533.5  Rx         0132  6  79 97 75 00 30 41 
   699)    207533.8  Rx         0372  8  05 49 3B 15 00 00 00 00 
   700)    207534.0  Rx         0393  8  08 00 0B 31 08 C0 0E 10 
   701)    207534.2  Rx         0401  8  0F 2A 93 9D 95 9D 8F 9D 
   702)    207536.9  Rx         0261  8  00 10 29 00 9D 4A 80 CE 
   703)    207537.1  Rx         03A1  8  88 4C 0C CA 00 30 82 1C 
   704)    207537.9  Rx         0339  8  01 F1 FE 00 80 03 80 0C 
   705)    207538.2  Rx         03A8  8  1C E0 7F 4D FC 0F 00 00 
   706)    207538.4  Rx         023E  8  F4 01 3A C0 FA FC BF E4 
   707)    207538.6  Rx         03C2  8  29 55 00 00 00 00 00 00 
   708)    207539.7  Rx         020C  8  7F 58 39 1E 66 01 30 12 
   709)    207539.9  Rx         075D  8  80 00 00 00 00 00 00 00 
   710)    207540.8  Rx         031E  8  02 00 00 00 00 00 00 00 
   711)    207540.9  Rx         06A2  5  00 00 00 00 00 
   712)    207541.2  Rx         021D  8  04 00 35 00 00 00 00 00 
   713)    207541.4  Rx         0118  8  26 69 95 00 19 C8 30 FE 
   714)    207541.7  Rx         0243  8  02 FC EB 0E 05 0E 00 00 
   715)    207541.9  Rx         0234  8  3E 29 03 00 38 00 94 D1 
   716)    207542.2  Rx         025D  8  14 41 01 2A 04 F0 00 00 
   717)    207542.4  Rx         0129  8  A6 26 FA 5F 01 20 FF 3F 
   718)    207542.6  Rx         0266  8  F4 07 09 28 09 00 9F 01 
   719)    207542.8  Rx         0229  3  DD 06 00 
   720)    207543.0  Rx         01D8  8  29 46 FF E9 07 00 60 97 
   721)    207543.2  Rx         0249  4  5E 07 00 00 
   722)    207543.4  Rx         0257  8  E4 15 3C 17 04 00 1E 01 
   723)    207543.6  Rx         0132  6  88 97 79 00 31 41 
   724)    207543.9  Rx         01E5  8  18 6C 04 00 00 00 60 CE 
   725)    207544.1  Rx         02E1  8  03 6D 66 02 1B 92 00 00 
   726)    207544.3  Rx         01FA  3  1A C0 01 
   727)    207544.5  Rx         03AE  8  F6 3F 00 08 00 00 E0 1E 
   728)    207544.7  Rx         0287  8  37 37 36 37 07 03 00 01 
   729)    207545.0  Rx         01F9  8  00 00 00 00 00 00 00 00 
   730)    207545.2  Rx         02C1  8  21 63 18 64 02 00 00 00 
   731)    207545.3  Rx         041D  1  14 
   732)    207545.5  Rx         045A  8  A4 48 49 C4 5F 20 50 40 
   733)    207545.8  Rx         04E3  8  02 87 01 FB 0F 00 28 00 
   734)    207546.1  Rx         054F  8  00 00 00 00 00 00 00 00 
   735)    207546.3  Rx         0677  8  00 00 00 00 00 00 00 00 
   736)    207548.4  Rx         0409  1  00 
   737)    207549.0  Rx         0340  8  08 00 00 00 00 00 00 00 
   738)    207550.0  Rx         0242  3  55 55 86 
   739)    207551.6  Rx         0343  8  00 91 50 FE 9E 00 00 00 
   740)    207551.8  Rx         0119  4  00 00 00 00 
   741)    207552.1  Rx         01D8  8  29 40 7F E9 07 00 80 31 
   742)    207552.3  Rx         01E5  8  18 6C 04 00 00 00 00 6E 
   743)    207552.5  Rx         0129  8  B1 27 FA 5F 01 20 FF 3F 
   744)    207552.8  Rx         0118  8  07 6A 95 00 19 C8 10 FE 
   745)    207553.0  Rx         022B  8  FF FF FF FF FF FF FF FF 
   746)    207553.3  Rx         0261  8  19 00 DE FF 13 4A 9A 1B 
   747)    207553.5  Rx         0263  8  02 00 A0 47 0F 3C 3D 21 
   748)    207553.7  Rx         0132  6  87 97 7A 00 2B 41 
   749)    207553.9  Rx         0266  8  F3 07 0A 29 09 00 9F 01 
   750)    207554.2  Rx         03A2  8  01 00 10 00 00 00 00 00 
   751)    207554.4  Rx         0227  8  D1 04 30 00 46 00 00 81 
   752)    207554.6  Rx         0247  8  52 0F FF 10 00 77 02 00 
   753)    207554.9  Rx         03E8  8  02 00 00 00 00 00 00 00 
   754)    207555.1  Rx         0201  8  51 58 98 00 00 00 00 00 
   755)    207555.4  Rx         0400  7  93 20 FC BE EF FB 00 
   756)    207555.6  Rx         038D  8  56 94 AA AA AA 24 49 02 
   757)    207555.8  Rx         0401  8  10 2A 76 9D 7F 9D 7C 9D 
   758)    207556.0  Rx         0441  8  85 85 89 00 32 00 20 4E 
   759)    207556.3  Rx         0360  8  08 00 00 00 00 00 00 00 
   760)    207556.5  Rx         039D  5  19 50 01 28 00 
   761)    207556.7  Rx         0545  8  02 00 03 00 00 00 00 4F 
   762)    207557.0  Rx         02E1  8  FC 1F 0C 1A 9F 08 0A 00 
   763)    207557.7  Rx         03C3  8  00 00 00 00 00 51 00 00 
   764)    207557.8  Rx         03E3  4  00 00 00 00 
   765)    207558.8  Rx         0439  8  00 00 00 00 00 18 63 02 
   766)    207559.3  Rx         0313  8  02 64 64 05 00 00 80 65 
   767)    207559.5  Rx         02D3  8  ED 00 3A 02 24 15 14 59 
   768)    207559.8  Rx         0285  8  02 9F 00 00 00 00 F6 00 
   769)    207560.0  Rx         0241  7  5E 5C 94 17 17 55 00 
   770)    207560.9  Rx         0381  8  05 00 00 00 00 E7 64 08 
   771)    207561.3  Rx         03C8  8  00 00 00 00 00 00 00 00 
   772)    207561.5  Rx         0118  8  28 6B 95 00 19 C8 30 FE 
   773)    207561.8  Rx         0243  8  03 00 20 80 24 59 14 00 
   774)    207562.0  Rx         0266  8  F3 07 09 28 0A 00 9F 01 
   775)    207562.2  Rx         0102  8  22 B3 48 02 D2 46 A1 09 
   776)    207562.4  Rx         0129  8  66 28 FA 5F 01 20 FF 3F 
   777)    207562.7  Rx         01D8  8  29 38 BF E8 07 00 A0 88 
   778)    207562.9  Rx         0212  8  59 04 00 00 81 FF 77 31 
   779)    207563.2  Rx         0252  8  C8 17 F4 70 00 FC 0F 00 
   780)    207563.4  Rx         01FB  8  00 00 00 00 00 00 00 00 
   781)    207563.6  Rx         0257  8  D5 06 3C 17 04 00 1E 01 
   782)    207563.9  Rx         0108  8  69 91 F9 2B FC 7F 0B 25 
   783)    207564.1  Rx         0132  6  8F 97 84 00 4A 41 
   784)    207564.3  Rx         01E5  8  18 6C 04 00 00 00 20 8E 
   785)    207564.5  Rx         0126  5  23 B0 1D 0C 23 
   786)    207564.7  Rx         0128  4  00 00 E4 0A 
   787)    207564.9  Rx         0292  8  1B 3F 7C 72 C9 01 00 00 
   788)    207565.1  Rx         01D6  8  00 08 00 00 CA 09 98 08 
   789)    207565.3  Rx         0268  5  28 09 78 01 A5 
   790)    207565.6  Rx         0279  8  B5 D1 0C 01 10 06 65 02 
   791)    207565.7  Rx         02B6  3  00 B0 01 
   792)    207565.9  Rx         02C1  8  02 19 06 00 00 D0 92 01 
   793)    207566.2  Rx         02D2  8  2A 2F B8 4E FA 05 9E 1E 
   794)    207566.3  Rx         02F2  2  12 02 
   795)    207566.5  Rx         0395  8  01 0F 0F 43 3C 3C 08 7D 
   796)    207566.8  Rx         0397  8  01 00 00 D8 1D 00 00 00 
   797)    207567.0  Rx         0553  8  00 00 00 00 00 00 C0 18 
   798)    207567.3  Rx         0712  8  02 2A 5B 0A 19 0B C1 0A 
   799)    207567.5  Rx         0752  8  0A 00 00 ED 9B 20 41 5A 
   800)    207567.7  Rx         07A8  8  01 00 00 00 FF A1 E8 13 
   801)    207568.0  Rx         0719  8  00 01 0C 14 14 05 0D 00 
   802)    207568.2  Rx         0122  8  01 00 00 00 00 3F 00 00 
   803)    207568.7  Rx         0113  3  01 97 01 
   804)    207569.0  Rx         0261  8  EA 2B 5A 02 80 5C A1 1C 
   805)    207569.1  Rx         07F4  1  01 
   806)    207569.3  Rx         07FF  8  04 87 5E F7 59 00 01 00 
   807)    207569.5  Rx         0318  8  1A 03 13 14 1E 2E 23 CE 
   808)    207569.8  Rx         0383  8  BB 18 14 00 3B F0 60 34 
   809)    207570.0  Rx         0458  7  00 00 20 00 00 00 00 
   810)    207570.9  Rx         02F1  8  04 92 4C 01 46 00 01 00 
   811)    207571.1  Rx         0221  8  60 55 55 15 54 51 71 58 
   812)    207571.4  Rx         02E1  8  05 00 00 00 00 40 26 00 
   813)    207571.7  Rx         0788  8  02 40 C6 07 00 03 00 00 
   814)    207571.9  Rx         0263  8  03 00 00 00 00 00 00 00 
   815)    207572.1  Rx         01D8  8  29 32 BF E7 07 00 C0 A1 
   816)    207572.3  Rx         0129  8  33 29 FA 5F 01 20 FF 3F 
   817)    207572.6  Rx         01E5  8  18 6C 04 00 00 00 40 AE 
   818)    207572.9  Rx         0228  8  01 06 18 4C 00 60 E1 D6 
   819)    207573.1  Rx         0118  8  E7 6C 95 00 18 C8 F0 FD 
   820)    207573.3  Rx         07D5  8  2B BE 1F F6 00 00 00 00 
   821)    207573.5  Rx         0132  6  97 97 8E 00 60 41 
   822)    207573.7  Rx         0266  8  F2 07 0A 29 0A 00 9F 01 
   823)    207574.0  Rx         0401  8  11 2A 7F 9D 84 9D 80 9D 
   824)    207574.2  Rx         0272  8  03 80 61 00 00 00 00 00 
   825)    207574.5  Rx         07D5  8  2C 3F 3D 00 00 00 00 00 
   826)    207574.7  Rx         07D5  8  32 00 00 00 00 00 00 00 
   827)    207575.0  Rx         0379  8  08 00 00 00 03 00 0C 03 
   828)    207575.2  Rx         07D7  8  32 0A 00 00 00 00 00 00 
   829)    207575.6  Rx         0423  7  00 00 10 00 00 00 00 
   830)    207578.0  Rx         023E  8  F4 01 3A C0 FA FC CF F4 
   831)    207579.9  Rx         0201  8  02 00 00 00 00 00 00 00 
   832)    207580.1  Rx         0282  8  3C CD 42 0B 44 D5 02 24 
   833)    207580.5  Rx         022A  4  00 00 49 18 
   834)    207581.1  Rx         07AA  8  C0 E3 8E 3C 00 08 00 00 
   835)    207581.4  Rx         0288  8  01 06 18 4C 00 60 F1 46 
   836)    207581.6  Rx         0118  8  E8 6D 95 00 18 C8 F0 FD 
   837)    207581.7  Rx         0139  1  00 
   838)    207581.9  Rx         0243  8  04 FC 33 F0 F5 7B FF FF 
   839)    207582.2  Rx         0266  8  F2 07 0A 28 0A 00 9F 01 
   840)    207582.4  Rx         0129  8  EC 2A FA 5F 01 20 FF 3F 
   841)    207582.7  Rx         01D8  8  29 2A BF E6 07 00 E0 B8 
   842)    207582.9  Rx         0257  8  D6 07 3C 17 04 00 1E 01 
   843)    207583.1  Rx         02C3  8  00 00 C0 4B 01 00 80 CB 
   844)    207583.3  Rx         01E5  8  18 6C 04 00 00 00 60 CE 
   845)    207583.6  Rx         0132  6  A5 97 8F 00 66 41 
   846)    207583.8  Rx         02E8  8  01 01 00 00 06 00 90 82 
   847)    207584.0  Rx         03F5  8  00 00 C8 38 82 0C 00 00 
   848)    207584.9  Rx         02E1  8  66 80 08 00 1B E1 CA 69 
   849)    207585.1  Rx         0261  8  BB 50 0A 00 00 40 B5 38 
   850)    207585.4  Rx         025B  8  D3 80 00 05 CA 8C F0 F9 
   851)    207585.7  Rx         02C1  8  EB 1A 98 00 00 00 00 00 
   852)    207585.9  Rx         0677  8  01 00 00 00 00 00 00 00 
   853)    207586.1  Rx         078A  8  01 00 03 00 B3 04 90 02 
   854)    207586.3  Rx         01F8  4  00 00 00 00 
   855)    207586.5  Rx         03A2  8  32 A9 FF FF 03 00 00 00 
   856)    207586.8  Rx         03AE  8  F6 3F 00 08 00 00 F0 2E 
   857)    207587.0  Rx         03A1  8  C1 FF FF 7B 3D 00 90 C7 
   858)    207587.2  Rx         0545  8  90 04 58 F0 A1 1B 1A FC 
   859)    207588.2  Rx         040A  8  09 10 00 00 00 00 E0 07 
   860)    207588.4  Rx         03C2  8  00 55 55 55 00 00 6A 05 
   861)    207588.6  Rx         0682  8  00 00 00 40 04 04 D0 D5 
   862)    207588.9  Rx         037A  8  B0 00 00 00 00 00 00 00 
   863)    207591.3  Rx         02A8  8  01 01 00 00 06 00 E0 92 
   864)    207591.6  Rx         0234  8  2E 00 03 FA E8 03 A0 51 
   865)    207591.8  Rx         0263  8  04 00 00 00 A0 1C 00 00 
   866)    207592.1  Rx         01D8  8  29 24 FF E5 07 00 00 11 
   867)    207592.3  Rx         0129  8  1D 2B FA 5F 01 20 FF 3F 
   868)    207592.6  Rx         01E5  8  18 6C 04 00 00 00 00 6E 
   869)    207592.8  Rx         0118  8  69 6E 95 00 18 C8 70 FD 
   870)    207593.0  Rx         0249  4  3F 08 00 00 
   871)    207593.2  Rx         0266  8  F1 07 0A 29 0A 00 9F 01 
   872)    207593.5  Rx         0289  8  00 00 00 00 00 00 00 14 
   873)    207593.6  Rx         0132  6  9F 97 97 00 6D 41 
   874)    207593.9  Rx         02B3  8  62 4C 04 5C 70 DE 3C 00 
   875)    207594.0  Rx         020E  2  12 02 
   876)    207594.1  Rx         02D1  2  FF 01 
   877)    207594.4  Rx         0372  8  06 F0 8A 18 01 EB 57 03 
   878)    207594.6  Rx         03AE  8  F6 3F 00 08 00 00 01 3F 
   879)    207594.8  Rx         0401  8  12 2A 81 9D 8C 9D 7C 9D 
   880)    207595.0  Rx         0419  1  00 
   881)    207595.2  Rx         0448  6  20 00 10 10 00 00 
   882)    207595.3  Rx         039D  5  1A 51 01 28 00 
   883)    207595.6  Rx         045A  8  FD 07 00 7F 02 00 0A 00 
   884)    207595.8  Rx         0359  8  4D 7B 48 AC 7E 1C 6D CC 
   885)    207596.1  Rx         0709  8  11 1A 00 00 00 00 00 00 
   886)    207597.6  Rx         0225  4  55 55 FA 00 
   887)    207598.1  Rx         02D7  5  80 A1 58 83 0B 
   888)    207598.9  Rx         02E1  8  10 21 04 00 10 00 00 04 
   889)    207599.2  Rx         0381  8  06 00 00 00 00 00 00 00 
   890)    207600.9  Rx         0261  8  C4 FD 8F 4F 00 40 C4 D1 
   891)    207601.3  Rx         0428  6  20 00 00 10 00 00 
   892)    207601.5  Rx         0118  8  7A 6F 95 00 18 C8 80 FD 
   893)    207601.7  Rx         0243  8  00 FC CF 8C 9B 64 0D 2C 
   894)    207602.0  Rx         0266  8  F1 07 0A 29 0A 00 9F 01 
   895)    207602.2  Rx         01D8  8  29 1C 3F E5 07 00 20 69 
   896)    207602.4  Rx         0129  8  7D 2C FA 5F 01 20 FF 3F 
   897)    207602.7  Rx         0257  8  D7 08 3C 17 04 00 1E 01 
   898)    207602.9  Rx         01E5  8  18 6C 04 00 00 00 20 8E 
   899)    207603.1  Rx         022B  8  FF FF FF FF FF FF FF FF 
   900)    207603.4  Rx         0441  8  65 01 B6 C3 58 00 25 C5 
   901)    207603.6  Rx         0132  6  9D 97 9D 00 69 41 
   902)    207603.8  Rx         0283  6  01 04 00 00 41 00 
   903)    207604.0  Rx         0421  7  50 14 00 00 00 D0 48 
   904)    207604.3  Rx         04E2  8  03 E6 01 00 00 00 28 00 
   905)    207604.9  Rx         02C1  8  04 00 00 00 00 00 00 00 
   906)    207605.2  Rx         0201  8  03 00 00 00 00 00 00 00 
   907)    207605.4  Rx         0211  6  9B 10 70 07 00 01 
   908)    207605.6  Rx         02BF  7  00 00 00 00 00 00 01 
   909)    207609.0  Rx         0420  7  28 01 40 4B 00 80 00 
   910)    207609.2  Rx         03DF  8  00 00 80 00 01 D0 01 0B 
   911)    207609.5  Rx         0293  8  02 2C 55 90 15 14 EF C0 
   912)    207609.7  Rx         03C0  8  01 00 00 00 00 00 00 00 
   913)    207610.0  Rx         0253  8  00 61 4F 3F 64 00 2A 04 
   914)    207610.2  Rx         0262  8  0B 00 9F F6 00 F0 52 12 
   915)    207610.4  Rx         0285  8  03 69 A3 3A 9F 00 00 00 
   916)    207610.7  Rx         039A  8  3C 13 FB 92 FF FD FD 61 
   917)    207611.7  Rx         0263  8  E0 43 F6 6A A6 EF 42 1F 
   918)    207612.1  Rx         01D8  8  29 16 7F E4 07 00 40 C2 
   919)    207612.3  Rx         01E5  8  18 6C 04 00 00 00 40 AE 
   920)    207612.5  Rx         0129  8  6F 2D FA 5F 01 20 FF 3F 
   921)    207612.9  Rx         02E1  8  39 ED 39 B5 0D 00 00 00 
   922)    207613.2  Rx         0118  8  1B 60 95 00 18 C8 30 FD 
   923)    207613.4  Rx         01FB  8  05 02 00 00 00 00 00 00 
   924)    207613.6  Rx         0132  6  AB 97 9C 00 6D 41 
   925)    207613.9  Rx         0266  8  F1 07 0A 29 0A 00 9F 01 
   926)    207614.1  Rx         0401  8  13 2A 88 9D 81 9D 78 9D 
   927)    207614.3  Rx         02C4  8  68 36 20 3F C1 C5 22 B2 
   928)    207614.6  Rx         0204  8  01 00 00 FF 00 00 00 00 
   929)    207615.0  Rx         0264  6  2A 00 00 00 E0 01 
   930)    207615.3  Rx         0224  8  04 08 00 20 DD 00 10 08 
   931)    207615.5  Rx         02B4  6  87 05 2F 0F 50 01 
   932)    207615.7  Rx         0103  8  22 B3 88 04 74 3E 21 32 
   933)    207616.2  Rx         0552  8  00 00 00 00 00 00 D0 27 
   934)    207616.9  Rx         0261  8  05 A2 33 C9 9A 42 D0 7D 
   935)    207617.1  Rx         03AE  8  F5 3F 00 08 00 00 11 4E 
   936)    207617.8  Rx         0719  8  01 00 00 00 00 00 00 00 
   937)    207618.4  Rx         0207  8  00 00 0A 01 04 00 00 00 
   938)    207618.6  Rx         023E  8  F4 01 3A C0 FA FC DF 04 
   939)    207618.8  Rx         0666  4  00 00 C8 00 
   940)    207619.1  Rx         055A  8  05 00 00 00 00 00 00 00 
   941)    207619.3  Rx         03A2  8  A0 45 72 F6 04 00 C6 6F 
   942)    207619.5  Rx         0405  8  12 46 30 30 31 30 39 30 
   943)    207619.7  Rx         0399  3  00 00 00 
   944)    207620.0  Rx         0545  8  01 00 00 00 00 10 20 7B 
   945)    207620.9  Rx         0221  8  61 05 55 55 01 02 80 B6 
   946)    207621.4  Rx         0118  8  CB 61 95 00 18 C8 E0 FC 
   947)    207621.7  Rx         0266  8  F0 07 0C 2A 0A 00 9F 01 
   948)    207621.9  Rx         0123  8  01 00 00 00 00 3F 00 00 
   949)    207622.1  Rx         0243  8  01 FC 40 66 3E 00 63 62 
   950)    207622.4  Rx         0129  8  B0 2E FA 5F 01 20 FF 3F 
   951)    207622.6  Rx         0257  8  D8 09 3C 17 04 00 1E 01 
   952)    207622.9  Rx         01D8  8  29 0E 7F E3 07 00 60 D9 
   953)    207623.1  Rx         01E5  8  18 6C 04 00 00 00 60 CE 
   954)    207623.3  Rx         0422  6  72 06 00 02 00 00 
   955)    207623.5  Rx         07E8  8  13 03 00 00 00 00 00 00 
   956)    207623.8  Rx         0132  6  AD 97 A8 00 95 41 
   957)    207624.0  Rx         02F9  8  D0 FB 07 10 00 00 00 00 
   958)    207624.2  Rx         031A  8  03 00 00 00 00 00 E0 00 
   959)    207625.0  Rx         02C1  8  C0 5C FE 00 4C 8E 02 00 
   960)    207625.2  Rx         0677  8  02 00 00 00 00 00 00 00 
   961)    207626.9  Rx         0281  6  2E 00 FF 1F 00 01 
   962)    207627.1  Rx         02E1  8  02 00 00 00 FF 00 02 00 
   963)    207627.7  Rx         03A3  8  14 D0 00 00 98 0B FC 01 
   964)    207628.2  Rx         02C2  8  55 5B A9 B6 82 C1 12 AA 
   965)    207629.5  Rx         02D3  8  ED 00 3A 02 24 15 14 59 
   966)    207629.9  Rx         0201  8  00 62 62 19 00 E4 FF 00 
   967)    207630.1  Rx         020A  6  F6 15 09 82 18 01 
   968)    207630.8  Rx         03F9  8  00 00 00 00 00 00 00 00 
   969)    207631.7  Rx         0263  8  D1 5B EE 72 A6 CF 42 1F 
   970)    207632.0  Rx         01D8  8  29 06 7F E2 07 00 80 F0 
   971)    207632.3  Rx         01E5  8  18 6C 04 00 00 00 00 6E 
   972)    207632.5  Rx         0129  8  85 2F FA 5F FF 1F FF 3F 
   973)    207632.8  Rx         0118  8  DC 62 95 00 18 C8 F0 FC 
   974)    207633.0  Rx         0261  8  00 10 28 00 9D 4A E0 2D 
   975)    207633.2  Rx         0266  8  EF 07 0B 29 0B 00 9F 01 
   976)    207633.5  Rx         0132  6  A9 97 AE 00 AD 41 
   977)    207633.8  Rx         0320  8  02 00 00 00 00 00 00 00 
   978)    207634.0  Rx         0393  8  03 80 61 00 00 00 00 00 
   979)    207634.3  Rx         0401  8  14 2A 81 9D 83 9D 84 9D 
   980)    207635.1  Rx         039D  5  1B 52 01 28 00 
   981)    207636.7  Rx         038B  8  FE FE 3F 0F 01 00 29 00 
   982)    207637.0  Rx         0381  8  07 00 00 00 00 00 00 00 
   983)    207637.2  Rx         03A1  8  88 4C 0C CA 00 30 A2 3C 
   984)    207637.9  Rx         0339  8  01 F1 FE 00 80 03 80 0C 
   985)    207638.1  Rx         0744  1  AF 
   986)    207638.3  Rx         02E2  8  F2 21 29 49 69 59 09 00 
   987)    207638.5  Rx         03C2  8  29 55 00 00 00 00 00 00 
   988)    207639.7  Rx         020C  8  7D 38 39 1E 66 01 30 12 
   989)    207639.9  Rx         031E  8  03 00 00 00 00 00 00 00 
   990)    207640.6  Rx         021D  8  04 00 35 00 00 00 00 00 
   991)    207640.8  Rx         06A2  5  00 00 00 00 00 
   992)    207641.0  Rx         025D  8  14 41 01 2A 04 F0 00 00 
   993)    207641.3  Rx         02E1  8  03 6D 66 02 1B 92 00 00 
   994)    207641.5  Rx         0118  8  8D 63 95 00 18 C8 A0 FC 
   995)    207641.7  Rx         0234  8  3E 25 03 00 38 00 B4 ED 
   996)    207642.0  Rx         0243  8  02 FC EB 0E 05 0E 00 00 
   997)    207642.2  Rx         0266  8  EF 07 0B 2A 0B 00 9F 01 
   998)    207642.4  Rx         0129  8  60 20 FA 5F FF 1F FF 3F 
   999)    207642.7  Rx         01D8  8  29 00 7F E1 07 00 A0 09 
  1000)    207642.8  Rx         0229  3  F9 07 00 
  1001)    207643.1  Rx         0257  8  D0 0A 3C 17 04 F8 1D 01 
  1002)    207643.3  Rx         01E5  8  18 6C 04 00 00 00 20 8E 
  1003)    207643.5  Rx         0132  6  AC 97 B4 00 A2 41 
  1004)    207643.7  Rx         0249  4  5E 09 00 00 
  1005)    207643.9  Rx         0287  8  37 37 36 37 08 03 00 02 
  1006)    207644.0  Rx         041D  1  14 
  1007)    207644.2  Rx         01FA  3  1A C0 01 
  1008)    207644.4  Rx         045A  8  A4 48 49 C4 5F 20 50 40 
  1009)    207644.7  Rx         054F  8  00 00 00 00 00 00 00 00 
  1010)    207644.9  Rx         01F9  8  00 00 00 00 00 00 00 00 
  1011)    207645.1  Rx         02C1  8  21 63 18 64 02 00 00 00 
  1012)    207645.7  Rx         04E3  8  03 59 00 00 00 00 28 00 
  1013)    207648.4  Rx         0409  1  00 
  1014)    207649.0  Rx         0340  8  09 00 00 00 00 00 00 00 
  1015)    207649.2  Rx         0261  8  19 00 DA FF 13 4A FA 77 
  1016)    207650.0  Rx         0242  3  55 55 86 
  1017)    207651.7  Rx         0343  8  00 91 50 2E 9F 00 00 00 
  1018)    207651.8  Rx         0119  4  00 00 00 00 
  1019)    207652.1  Rx         01D8  8  29 F8 7E E0 07 00 C0 1F 
  1020)    207652.3  Rx         01E5  8  18 6C 04 00 00 00 40 AE 
  1021)    207652.6  Rx         0129  8  77 21 FA 5F FF 1F FF 3F 
  1022)    207652.8  Rx         0118  8  5E 64 95 00 18 C8 70 FC 
  1023)    207653.0  Rx         022B  8  FF FF FF FF FF FF FF FF 
  1024)    207653.3  Rx         0263  8  02 00 A0 47 0F 3C 3D 21 
  1025)    207653.5  Rx         0266  8  EF 07 0C 2B 0B 00 9F 01 
  1026)    207653.7  Rx         0132  6  AF 97 B7 00 A1 41 
  1027)    207653.9  Rx         02B3  8  03 46 46 04 0A 00 00 3D 
  1028)    207654.2  Rx         0227  8  CA 04 2F 00 46 00 00 81 
  1029)    207654.4  Rx         0247  8  57 0F FF 10 00 76 02 00 
  1030)    207654.6  Rx         0372  8  07 F9 C2 17 BE F2 45 1F 
  1031)    207654.9  Rx         03A2  8  01 00 10 00 00 00 00 00 
  1032)    207655.1  Rx         0201  8  51 58 98 00 00 00 00 00 
  1033)    207655.4  Rx         02E1  8  FC 1F 0B 1A 9F 02 0A 00 
  1034)    207655.6  Rx         03E8  8  03 00 00 00 00 00 00 00 
  1035)    207655.8  Rx         0400  7  00 E0 FB BE EF FB 00 
  1036)    207656.1  Rx         0401  8  15 2A 84 9D 8B 9D 88 9D 
  1037)    207656.3  Rx         0360  8  09 00 00 00 00 00 00 00 
  1038)    207656.5  Rx         0441  8  85 85 89 00 32 00 28 56 
  1039)    207656.8  Rx         0545  8  02 00 03 00 00 00 30 7F 
  1040)    207657.7  Rx         03C3  8  55 55 55 01 00 00 00 00 
  1041)    207657.9  Rx         023E  8  F4 01 3A C0 FA FC EF 14 
  1042)    207658.2  Rx         03AE  8  F5 3F 00 08 00 00 21 5E 
  1043)    207658.7  Rx         04F3  4  00 00 00 00 
  1044)    207658.9  Rx         0439  8  00 00 00 00 00 18 63 02 
  1045)    207659.0  Rx         0213  2  E8 FD 
  1046)    207659.9  Rx         0241  7  5D 5C 54 17 17 55 00 
  1047)    207660.2  Rx         0253  8  01 61 4F 3F 64 00 2A 04 
  1048)    207661.2  Rx         07AA  8  01 30 0F 2A 0F 00 00 00 
  1049)    207661.5  Rx         0118  8  BF 65 95 00 18 C8 D0 FC 
  1050)    207661.7  Rx         0243  8  03 00 20 80 24 59 14 00 
  1051)    207661.9  Rx         0266  8  EE 07 0B 2A 0B 00 9F 01 
  1052)    207662.2  Rx         0212  8  59 04 00 00 81 FF 77 31 
  1053)    207662.4  Rx         0102  8  22 B3 48 02 D2 46 A1 09 
  1054)    207662.6  Rx         0129  8  64 22 F9 5F 00 20 FF 3F 
  1055)    207662.9  Rx         01D8  8  29 F2 7E DF 07 00 E0 38 
  1056)    207663.1  Rx         0108  8  9C 12 F7 F3 FA 6D 0B 25 
  1057)    207663.4  Rx         01FB  8  00 00 00 00 00 00 00 00 
  1058)    207663.6  Rx         0252  8  C8 17 F4 70 00 FC 0F 00 
  1059)    207663.8  Rx         0132  6  C0 97 C2 00 C8 41 
  1060)    207664.0  Rx         0257  8  C0 FB 3B 17 04 F8 1D 01 
  1061)    207664.2  Rx         0126  5  30 B0 1D 14 38 
  1062)    207664.5  Rx         01E5  8  18 6C 04 00 00 00 60 CE 
  1063)    207664.6  Rx         0128  4  00 00 E4 0A 
  1064)    207664.8  Rx         0285  8  04 84 99 3B 8C 00 00 00 
  1065)    207665.1  Rx         01D6  8  00 08 00 00 CA 09 98 08 
  1066)    207665.4  Rx         0261  8  EA 2B 5A 02 80 5C 01 7C 
  1067)    207665.5  Rx         0268  5  2A 0B 78 01 A5 
  1068)    207665.7  Rx         0292  8  1B 3F 7C 72 C9 01 00 00 
  1069)    207666.0  Rx         0279  8  B6 D2 0C 01 10 06 65 02 
  1070)    207666.2  Rx         02C1  8  02 19 06 00 00 D0 92 01 
  1071)    207666.4  Rx         02B6  3  00 B0 01 
  1072)    207666.6  Rx         02D2  8  27 2F B8 4E FA 05 9E 1E 
  1073)    207666.7  Rx         02F2  2  12 02 
  1074)    207667.0  Rx         0395  8  01 0F 0F 43 3D 3C 08 7D 
  1075)    207667.2  Rx         0397  8  01 00 00 D8 1D 00 00 00 
  1076)    207667.5  Rx         03B2  8  51 00 00 3E 00 00 00 00 
  1077)    207667.7  Rx         03C8  8  01 00 00 00 00 00 00 00 
  1078)    207668.0  Rx         0553  8  00 00 00 00 00 00 D0 28 
  1079)    207668.2  Rx         0677  8  03 00 00 00 00 00 00 00 
  1080)    207668.4  Rx         0122  8  00 00 13 12 D2 00 00 00 
  1081)    207668.7  Rx         0712  8  03 2A 6C 0A 47 0B 7B 0A 
  1082)    207668.8  Rx         0113  3  01 97 01 
  1083)    207669.1  Rx         02E1  8  05 00 00 00 00 40 26 00 
  1084)    207669.3  Rx         0719  8  EE AB 00 00 5E 00 00 14 
  1085)    207669.5  Rx         07A8  8  02 40 C1 07 00 0F 00 00 
  1086)    207669.8  Rx         0383  8  BB 18 14 00 3B F0 60 34 
  1087)    207669.9  Rx         07F4  1  01 
  1088)    207670.1  Rx         07FF  8  05 00 00 01 20 00 80 00 
  1089)    207670.4  Rx         0318  8  1A 03 13 14 1E 2E 25 D0 
  1090)    207670.6  Rx         0458  7  00 00 20 00 00 00 00 
  1091)    207670.9  Rx         02F1  8  05 12 4B 01 46 00 01 00 
  1092)    207671.2  Rx         0221  8  60 55 55 15 54 51 91 78 
  1093)    207671.4  Rx         0788  8  04 E5 E1 83 00 00 8A 00 
  1094)    207671.7  Rx         0263  8  03 00 00 00 00 00 00 00 
  1095)    207672.1  Rx         01D8  8  29 EA 7E DE 07 00 00 4F 
  1096)    207672.3  Rx         01E5  8  18 6C 04 00 00 00 00 6E 
  1097)    207672.5  Rx         0129  8  1A 23 F9 5F FF 1F FF 3F 
  1098)    207672.9  Rx         0228  8  01 06 18 4C 00 60 F1 E6 
  1099)    207673.1  Rx         0118  8  E0 66 95 00 18 C8 F0 FC 
  1100)    207673.3  Rx         07D5  8  2B D1 1F F6 00 00 00 00 
  1101)    207673.6  Rx         0266  8  EE 07 0C 2B 0B 00 9F 01 
  1102)    207673.8  Rx         0132  6  C7 97 C6 00 BE 41 
  1103)    207674.0  Rx         03AE  8  F5 3F 00 08 00 00 30 6D 
  1104)    207674.2  Rx         0272  8  08 00 0D 39 08 C0 0E 10 
  1105)    207674.5  Rx         0401  8  16 2A 89 9D 89 9D 88 9D 
  1106)    207674.7  Rx         07D5  8  2C 3F 3D 00 00 00 00 00 
  1107)    207675.0  Rx         0379  8  09 00 00 00 03 00 0C 03 
  1108)    207675.2  Rx         0381  8  08 00 00 00 00 00 00 00 
  1109)    207675.4  Rx         039D  5  1C 53 01 28 00 
  1110)    207675.6  Rx         07D5  8  32 00 00 00 00 00 00 00 
  1111)    207675.9  Rx         0423  7  00 00 10 00 00 00 00 
  1112)    207676.1  Rx         07D7  8  32 0C 00 00 00 00 00 00 
  1113)    207680.0  Rx         0201  8  02 00 00 00 00 00 00 00 
  1114)    207680.2  Rx         0282  8  3C CD F2 0A 44 D5 02 24 
  1115)    207680.5  Rx         022A  4  00 00 59 18 
  1116)    207680.9  Rx         0261  8  BB 50 0A 00 00 40 15 98 
  1117)    207681.3  Rx         0288  8  01 06 18 4C 00 60 01 56 
  1118)    207681.5  Rx         0118  8  B1 67 95 00 18 C8 C0 FC 
  1119)    207681.7  Rx         0243  8  04 FC 33 F0 F5 7B FF FF 
  1120)    207681.9  Rx         0139  1  00 
  1121)    207682.1  Rx         0266  8  ED 07 0C 2A 0C 00 9F 01 
  1122)    207682.3  Rx         0129  8  C5 24 F8 5F FE 1F FF 3F 
  1123)    207682.6  Rx         01D8  8  29 E4 7E DD 07 00 20 68 
  1124)    207682.8  Rx         0257  8  B9 FC 3B 17 04 F0 1D 01 
  1125)    207683.1  Rx         01E5  8  18 6C 04 00 00 00 20 8E 
  1126)    207683.3  Rx         02C3  8  55 03 A8 06 80 C1 12 AA 
  1127)    207683.5  Rx         02E1  8  66 80 08 00 1B E1 CA 69 
  1128)    207683.7  Rx         0132  6  C3 97 CC 00 E7 41 
  1129)    207684.0  Rx         02E8  8  01 01 00 00 06 00 A0 92 
  1130)    207684.2  Rx         03F5  8  00 00 C8 38 82 0C 00 00 
  1131)    207684.9  Rx         02C1  8  EB 1A 98 00 00 00 00 00 
  1132)    207685.2  Rx         025B  8  D3 80 00 05 CA 8C 00 09 
  1133)    207685.4  Rx         03A2  8  32 A9 FF 7F 03 00 00 00 
  1134)    207685.7  Rx         03AA  8  00 00 00 00 00 00 00 00 
  1135)    207685.9  Rx         03CC  8  03 11 03 19 00 38 24 00 
  1136)    207686.1  Rx         0545  8  90 04 58 F0 A1 1B 4A 2C 
  1137)    207686.3  Rx         01F8  4  00 00 00 00 
  1138)    207686.5  Rx         077A  8  00 45 4E 00 4D 10 6F 05 
  1139)    207686.8  Rx         078A  8  01 00 04 00 F1 05 98 00 
  1140)    207687.0  Rx         03A1  8  C1 FF FF 71 3D 00 B0 DD 
  1141)    207687.5  Rx         0743  1  22 
  1142)    207688.1  Rx         03E2  7  02 00 00 00 00 C0 00 
  1143)    207688.4  Rx         03C2  8  00 55 55 55 00 00 6A 05 
  1144)    207688.8  Rx         037A  8  A1 00 00 00 01 00 00 00 
  1145)    207689.3  Rx         0682  8  00 00 00 40 04 04 E0 E5 
  1146)    207689.6  Rx         02E3  7  44 DF 62 8D 29 06 00 
  1147)    207691.3  Rx         02A8  8  01 01 00 00 06 00 F0 A2 
  1148)    207691.6  Rx         0234  8  30 00 03 FA E8 03 C0 73 
  1149)    207691.9  Rx         0263  8  04 00 00 00 A0 1C 00 00 
  1150)    207692.1  Rx         01D8  8  29 DC 3E DC 07 00 40 3F 
  1151)    207692.3  Rx         01E5  8  18 6C 04 00 00 00 40 AE 
  1152)    207692.5  Rx         0129  8  D2 25 F8 5F FE 1F FF 3F 
  1153)    207692.8  Rx         0118  8  A2 68 95 00 18 C8 B0 FC 
  1154)    207693.0  Rx         0249  4  E2 0A 00 00 
  1155)    207693.2  Rx         0266  8  ED 07 0C 2A 0C 00 9F 01 
  1156)    207693.4  Rx         0289  8  00 00 00 00 00 00 00 14 
  1157)    207693.6  Rx         0132  6  BA 97 D3 00 DE 41 
  1158)    207693.8  Rx         02D1  2  FF 01 
  1159)    207694.0  Rx         0401  8  17 2A 87 9D 8C 9D 8C 9D 
  1160)    207694.1  Rx         020E  2  13 03 
  1161)    207694.2  Rx         0419  1  00 
  1162)    207694.5  Rx         0448  6  20 00 10 10 00 00 
  1163)    207694.7  Rx         045A  8  FD 07 00 7F 02 00 0A 00 
  1164)    207695.9  Rx         0359  8  80 3F 00 00 00 00 00 00 
  1165)    207696.9  Rx         02E1  8  10 21 04 00 10 00 00 04 
  1166)    207697.2  Rx         0261  8  C4 FD 8F 4F 00 40 24 31 
  1167)    207697.6  Rx         0225  4  55 55 FA 00 
  1168)    207698.1  Rx         02D7  5  80 A1 58 83 0B 
  1169)    207698.6  Rx         03AE  8  F4 3F 00 08 00 00 40 7C 
  1170)    207698.8  Rx         023E  8  F4 01 3A C0 FA FC FF 24 
  1171)    207701.2  Rx         0428  6  20 00 00 10 00 00 
  1172)    207701.5  Rx         0118  8  73 69 95 00 18 C8 80 FC 
  1173)    207701.7  Rx         0243  8  00 FC CF 8C 9B 64 0D 2C 
  1174)    207701.9  Rx         0266  8  ED 07 0C 2B 0C 00 9F 01 
  1175)    207702.2  Rx         01D8  8  29 D6 7E DB 07 00 60 98 
  1176)    207702.4  Rx         0129  8  D0 26 F8 5F FD 1F FF 3F 
  1177)    207702.7  Rx         0257  8  AA ED 3B 17 04 F0 1D 01 
  1178)    207702.9  Rx         01E5  8  18 6C 04 00 00 00 60 CE 
  1179)    207703.1  Rx         022B  8  FF FF FF FF FF FF FF FF 
  1180)    207703.4  Rx         0441  8  65 01 B6 C3 58 00 2D CD 
  1181)    207703.5  Rx         0132  6  C0 97 D1 00 D3 41 
  1182)    207703.8  Rx         0283  6  01 04 00 00 41 00 
  1183)    207704.0  Rx         0421  7  50 14 00 00 00 D0 48 
  1184)    207704.2  Rx         04E2  8  04 6A 20 87 15 58 01 00 
  1185)    207705.0  Rx         02C1  8  04 00 00 00 00 00 00 00 
  1186)    207705.2  Rx         0201  8  03 00 00 00 00 00 00 00 
  1187)    207705.4  Rx         0211  6  9C 11 70 07 00 01 
  1188)    207705.6  Rx         0443  6  70 05 FF 03 00 00 
  1189)    207705.9  Rx         0677  8  04 00 00 00 00 00 00 00 
  1190)    207706.1  Rx         0718  7  04 00 00 00 00 00 00 
  1191)    207709.0  Rx         0473  8  00 00 03 00 00 00 00 00 
  1192)    207709.2  Rx         0420  7  28 01 40 4B 00 00 01 
  1193)    207709.5  Rx         03B3  8  10 80 04 30 80 00 B8 88 
  1194)    207709.7  Rx         03C0  8  02 00 00 00 00 00 00 00 
  1195)    207709.9  Rx         039A  8  FD FD FD FD FD 01 00 02 
  1196)    207710.2  Rx         0262  8  0B 00 9F F6 00 F0 52 12 
  1197)    207710.9  Rx         02E1  8  39 ED 39 B5 0D 00 00 00 
  1198)    207711.7  Rx         0263  8  E0 43 F6 6A A6 EF 42 1F 
  1199)    207711.9  Rx         02B3  8  04 E2 C3 8D 1C 05 03 00 
  1200)    207712.2  Rx         01D8  8  29 D0 BE DA 07 00 80 F1 
  1201)    207712.4  Rx         0129  8  C7 27 F8 5F FD 1F FF 3F 
  1202)    207712.6  Rx         01E5  8  18 6C 04 00 00 00 00 6E 
  1203)    207712.9  Rx         0261  8  05 A2 33 C9 9A 42 30 DD 
  1204)    207713.2  Rx         0118  8  44 6A 95 00 18 C8 50 FC 
  1205)    207713.4  Rx         01FB  8  05 02 00 00 00 00 00 00 
  1206)    207713.6  Rx         0132  6  C4 97 DA 00 0D 42 
  1207)    207713.8  Rx         0266  8  EC 07 0C 2B 0C 00 9F 01 
  1208)    207714.1  Rx         0372  8  08 F4 A1 0F 7D E8 43 1F 
  1209)    207714.3  Rx         02C4  8  49 D9 FD 2E AC D4 A5 88 
  1210)    207714.6  Rx         0381  8  09 00 00 00 00 00 00 00 
  1211)    207714.8  Rx         0204  8  01 00 00 FF 00 00 00 00 
  1212)    207715.0  Rx         0264  6  2B 00 00 00 E0 01 
  1213)    207715.2  Rx         039D  5  1D 54 01 28 00 
  1214)    207715.5  Rx         0224  8  04 08 00 20 DD 00 10 08 
  1215)    207715.6  Rx         02B4  6  83 05 33 0F 58 01 
  1216)    207715.9  Rx         0103  8  22 B3 88 04 74 40 21 32 
  1217)    207716.1  Rx         03C4  8  1B 00 00 00 00 00 00 00 
  1218)    207716.3  Rx         0401  8  18 2A 7E 9D 98 9D A0 9D 
  1219)    207716.6  Rx         0552  8  00 00 00 00 00 00 E0 37 
  1220)    207717.8  Rx         0719  8  0C 5E 0F 00 50 00 20 00 
  1221)    207718.1  Rx         0207  8  00 02 08 01 05 00 00 00 
  1222)    207718.3  Rx         03A2  8  E0 85 F3 07 05 00 C6 6F 
  1223)    207719.0  Rx         0545  8  01 00 00 00 00 10 50 AB 
  1224)    207720.9  Rx         0221  8  61 05 55 55 01 02 A0 D6 
  1225)    207721.4  Rx         0118  8  95 6B 95 00 18 C8 A0 FC 
  1226)    207721.6  Rx         0266  8  EB 07 0D 2B 0C 00 9F 01 
  1227)    207721.9  Rx         0123  8  00 00 13 12 D2 00 00 00 
  1228)    207722.1  Rx         0243  8  01 FC 3F 66 3F 00 63 62 
  1229)    207722.3  Rx         0257  8  A3 EE 3B 17 04 E8 1D 01 
  1230)    207722.5  Rx         0129  8  10 28 F8 5F FD 1F FF 3F 
  1231)    207722.8  Rx         01D8  8  29 CA BE D9 07 00 A0 0A 
  1232)    207723.0  Rx         0422  6  72 06 00 02 00 00 
  1233)    207723.2  Rx         01E5  8  18 6C 04 00 00 00 20 8E 
  1234)    207723.5  Rx         0132  6  CD 97 E1 00 03 42 
  1235)    207723.8  Rx         02F9  8  D0 FB 07 18 00 00 00 00 
  1236)    207724.9  Rx         02E1  8  02 00 00 00 FF 00 02 00 
  1237)    207725.2  Rx         02C1  8  C0 5C FE 00 4C 8E 02 00 
  1238)    207725.9  Rx         031F  8  74 45 70 46 71 42 78 47 
  1239)    207726.9  Rx         0281  6  2D 00 FF 1F 00 01 
  1240)    207727.7  Rx         03A3  8  12 D0 00 00 98 0B FC 01 
  1241)    207728.2  Rx         02C2  8  20 40 C0 4B 01 00 40 CB 
  1242)    207728.9  Rx         0261  8  00 10 28 00 9D 4A 40 8D 
  1243)    207729.9  Rx         0201  8  00 62 61 19 00 E4 FF 00 
  1244)    207730.8  Rx         07AA  8  92 08 C8 F8 F7 07 22 00 
  1245)    207731.1  Rx         03F9  8  01 00 00 00 00 00 00 01 
  1246)    207731.7  Rx         0263  8  D1 5B EE 72 A6 CF 42 1F 
  1247)    207732.1  Rx         01D8  8  29 C4 FE D8 07 00 C0 63 
  1248)    207732.3  Rx         01E5  8  18 6C 04 00 00 00 40 AE 
  1249)    207732.5  Rx         0129  8  45 29 F8 5F FD 1F FF 3F 
  1250)    207732.8  Rx         0118  8  F7 6C 95 00 18 C8 00 FD 
  1251)    207733.0  Rx         0266  8  EC 07 0D 2C 0C 00 9F 01 
  1252)    207733.5  Rx         0132  6  DB 97 E5 00 F9 41 
  1253)    207733.8  Rx         0393  8  08 00 0E 21 08 C0 0E 10 
  1254)    207734.0  Rx         0401  8  19 2A 9C 9D 9C 9D 99 9D 
  1255)    207737.0  Rx         03A1  8  88 4C 0C CA 00 30 C2 5C 
  1256)    207737.9  Rx         0339  8  01 F1 FE 00 80 03 80 0C 
  1257)    207738.2  Rx         023E  8  F4 01 3A C0 FA FC 0F 34 
  1258)    207738.4  Rx         03A8  8  00 FF 00 00 00 00 00 00 
  1259)    207738.7  Rx         03AE  8  F4 3F 00 08 00 00 50 8C 
  1260)    207738.9  Rx         03C2  8  29 55 00 00 00 00 00 00 
  1261)    207739.1  Rx         02E1  8  03 6D 66 02 1B 92 00 00 
  1262)    207739.7  Rx         020C  8  80 58 39 1E 66 01 30 12 
  1263)    207739.9  Rx         053E  8  11 00 00 00 00 00 00 00 
  1264)    207740.8  Rx         037D  8  01 69 69 00 00 00 00 00 
  1265)    207741.0  Rx         06A2  5  00 00 00 00 00 
  1266)    207741.3  Rx         03DD  8  01 00 00 00 00 00 00 00 
  1267)    207741.5  Rx         0118  8  B7 6D 95 00 18 C8 C0 FC 
  1268)    207741.7  Rx         021D  8  04 00 35 00 00 00 00 00 
  1269)    207742.0  Rx         0234  8  3E 25 03 00 38 00 D4 0D 
  1270)    207742.2  Rx         0243  8  02 FC E3 0E 05 0E 00 00 
  1271)    207742.4  Rx         0129  8  9A 2A F8 5F FD 1F FF 3F 
  1272)    207742.7  Rx         025D  8  14 41 01 2A 04 F0 00 00 
  1273)    207742.8  Rx         0229  3  4C 08 00 
  1274)    207743.1  Rx         0266  8  EB 07 0C 2B 0C 00 9F 01 
  1275)    207743.3  Rx         01D8  8  29 BE FE D7 07 00 E0 7C 
  1276)    207743.5  Rx         0249  4  28 0B 00 00 
  1277)    207743.7  Rx         0132  6  D1 97 E6 00 1A 42 
  1278)    207743.9  Rx         0257  8  A4 EF 3B 17 04 E8 1D 01 
  1279)    207744.1  Rx         01E5  8  18 6C 04 00 00 00 60 CE 
  1280)    207744.3  Rx         01FA  3  1A C0 01 
  1281)    207744.5  Rx         0287  8  37 37 36 37 09 03 00 02 
  1282)    207744.6  Rx         041D  1  14 
  1283)    207744.9  Rx         01F9  8  00 00 00 00 00 00 00 00 
  1284)    207745.1  Rx         0261  8  19 00 D8 FF 13 4A 5A D5 
  1285)    207745.4  Rx         02C1  8  21 63 18 64 02 00 00 00 
  1286)    207745.6  Rx         045A  8  A4 48 49 C4 5F 20 50 3F 
  1287)    207745.8  Rx         04E3  8  04 18 80 01 08 A0 00 00 
  1288)    207746.0  Rx         054F  8  00 00 00 00 00 00 00 00 
  1289)    207746.3  Rx         0677  8  00 00 00 00 00 00 00 00 
  1290)    207746.6  Rx         075D  8  01 00 00 00 00 00 00 80 
  1291)    207747.0  Rx         0409  1  00 
  1292)    207748.9  Rx         0340  8  0A 04 00 00 00 00 00 00 
  1293)    207750.1  Rx         0242  3  55 55 86 
  1294)    207751.0  Rx         0381  8  0A 00 00 00 00 00 00 00 
  1295)    207751.2  Rx         03A2  8  01 10 10 00 00 00 00 00 
  1296)    207751.7  Rx         0343  8  00 91 50 9E 9E 00 00 00 
  1297)    207751.8  Rx         0119  4  00 00 00 00 
  1298)    207752.1  Rx         01D8  8  29 B8 7E D7 07 00 00 16 
  1299)    207752.3  Rx         0129  8  6B 2B F8 5F FD 1F FF 3F 
  1300)    207752.6  Rx         01E5  8  18 6C 04 00 00 00 00 6E 
  1301)    207752.8  Rx         022B  8  FF FF FF FF FF FF FF FF 
  1302)    207753.0  Rx         0118  8  48 6E 95 00 18 C8 50 FC 
  1303)    207753.3  Rx         0263  8  02 00 A0 47 0F 3C 3D 21 
  1304)    207753.5  Rx         0266  8  EA 07 0D 2B 0D 00 9F 01 
  1305)    207753.7  Rx         0132  6  E2 97 EA 00 19 42 
  1306)    207753.9  Rx         02E1  8  FC 1F 0C 1A 9F 08 0A 00 
  1307)    207754.2  Rx         0227  8  C5 04 2F 00 46 00 00 81 
  1308)    207754.4  Rx         0247  8  5B 0F FF 10 00 75 02 00 
  1309)    207754.7  Rx         03E8  8  04 00 00 00 00 00 00 00 
  1310)    207754.9  Rx         0400  7  00 E0 FB BE EF FB 00 
  1311)    207755.1  Rx         0201  8  51 48 98 00 00 00 00 00 
  1312)    207755.3  Rx         039D  5  1E 55 01 28 00 
  1313)    207755.5  Rx         0401  8  1A 2A 9E 9D 97 9D 98 9D 
  1314)    207755.8  Rx         0441  8  85 85 89 00 32 00 30 5E 
  1315)    207756.0  Rx         0545  8  02 00 04 00 00 00 60 B0 
  1316)    207756.2  Rx         0360  8  0A 00 00 00 00 00 00 00 
  1317)    207757.7  Rx         03C3  8  00 00 00 00 00 51 00 00 
  1318)    207757.9  Rx         03E3  4  00 00 00 00 
  1319)    207758.8  Rx         0439  8  00 00 00 00 00 18 63 02 
  1320)    207759.5  Rx         004F  8  7D BF 7E 62 00 6F AC 11 
  1321)    207759.7  Rx         03BC  4  00 00 6E 6E 
  1322)    207759.9  Rx         0241  7  5D 5C 54 17 17 55 00 
  1323)    207760.1  Rx         0333  5  84 30 26 07 00 
  1324)    207760.3  Rx         0334  8  BF 3F 14 80 FC 07 D4 A0 
  1325)    207760.6  Rx         03FD  8  00 00 00 3C 20 01 03 80 
  1326)    207760.9  Rx         0261  8  EA 2B 5A 02 80 5C 61 DC 
  1327)    207761.4  Rx         03C8  8  02 00 00 00 00 00 00 00 
  1328)    207761.6  Rx         0118  8  49 6F 95 00 18 C8 50 FC 
  1329)    207761.8  Rx         0243  8  03 00 20 80 24 59 14 00 
  1330)    207762.0  Rx         0212  8  59 04 00 00 81 FF 77 31 
  1331)    207762.3  Rx         0102  8  22 B3 48 02 D2 46 A1 09 
  1332)    207762.5  Rx         0129  8  0B 2C F8 5F FD 1F FF 3F 
  1333)    207762.8  Rx         0252  8  C8 17 F4 70 00 FC 0F 00 
  1334)    207763.0  Rx         0266  8  EA 07 0C 2B 0D 00 9F 01 
  1335)    207763.2  Rx         0108  8  1B 13 F5 8B FA 55 0B 25 
  1336)    207763.5  Rx         01D8  8  29 B2 BE D6 07 00 20 6F 
  1337)    207763.7  Rx         0126  5  3D B0 1D 1C 4D 
  1338)    207763.8  Rx         0132  6  E9 97 F4 00 22 42 
  1339)    207764.1  Rx         01FB  8  00 00 00 00 00 00 00 00 
  1340)    207764.4  Rx         0257  8  7D D0 3B 17 04 E0 1D 01 
  1341)    207764.5  Rx         0128  4  00 00 E4 0A 
  1342)    207764.7  Rx         01E5  8  18 6C 04 00 00 00 20 8E 
  1343)    207765.0  Rx         01D6  8  00 08 00 00 CA 09 98 08 
  1344)    207765.2  Rx         0292  8  1B 3F 7C 72 C9 01 00 00 
  1345)    207765.4  Rx         0268  5  2B 0D 78 01 A5 
  1346)    207765.6  Rx         02C1  8  02 19 06 00 00 D0 92 01 
  1347)    207765.8  Rx         0279  8  BB D3 0C 01 14 06 65 02 
  1348)    207766.0  Rx         02B6  3  00 B0 01 
  1349)    207766.2  Rx         02D2  8  24 2F B9 4E FA 05 9E 1E 
  1350)    207766.4  Rx         02F2  2  12 02 
  1351)    207766.6  Rx         0319  8  21 00 00 00 FF FF FF FF 
  1352)    207766.9  Rx         0395  8  01 0F 0F 43 3C 3C 08 7D 
  1353)    207767.1  Rx         02E1  8  05 00 00 00 00 40 26 00 
  1354)    207767.3  Rx         0397  8  01 00 00 D8 1D 00 00 00 
  1355)    207767.6  Rx         0553  8  00 00 00 00 00 00 E0 38 
  1356)    207767.8  Rx         0712  8  04 2A 6E 0A 0D 0B 73 0A 
  1357)    207768.1  Rx         03DB  8  04 00 00 FF FF 00 00 00 
  1358)    207768.3  Rx         0122  8  01 00 00 00 00 3F 00 00 
  1359)    207768.5  Rx         043B  8  03 7F 00 FF 00 00 00 00 
  1360)    207768.8  Rx         0719  8  0D 00 00 00 00 00 00 00 
  1361)    207769.0  Rx         0113  3  01 97 01 
  1362)    207769.2  Rx         07A8  8  04 E5 E1 83 00 00 82 00 
  1363)    207769.3  Rx         07F4  1  01 
  1364)    207769.6  Rx         07FF  8  06 00 30 00 00 00 00 C0 
  1365)    207769.8  Rx         0383  8  BB 18 14 00 79 F2 60 34 
  1366)    207770.0  Rx         0318  8  1A 03 13 14 1E 2E 27 D2 
  1367)    207770.2  Rx         0458  7  00 00 20 00 00 00 00 
  1368)    207771.0  Rx         02F1  8  06 92 48 01 46 00 01 00 
  1369)    207771.2  Rx         0221  8  60 55 55 15 54 51 B1 98 
  1370)    207771.4  Rx         0788  8  01 00 00 00 FF A1 F8 13 
  1371)    207771.7  Rx         0263  8  03 00 00 00 00 00 00 00 
  1372)    207771.9  Rx         02B3  8  05 00 00 00 71 81 90 00 
  1373)    207772.2  Rx         01D8  8  29 AC FE D5 07 00 40 C8 
  1374)    207772.4  Rx         0129  8  C1 2D F8 5F FE 1F FF 3F 
  1375)    207772.7  Rx         01E5  8  18 6C 04 00 00 00 40 AE 
  1376)    207772.9  Rx         0228  8  01 06 18 4C 00 60 01 F6 
  1377)    207773.1  Rx         0118  8  3A 60 95 00 18 C8 50 FC 
  1378)    207773.4  Rx         07D5  8  2B D7 1F F6 00 00 00 00 
  1379)    207773.6  Rx         0132  6  E9 97 F6 00 15 42 
  1380)    207773.8  Rx         0266  8  EA 07 0D 2B 0D 00 9F 01 
  1381)    207774.0  Rx         0372  8  09 00 00 00 00 F8 3F 00 
  1382)    207774.3  Rx         0272  8  03 80 61 00 00 00 00 00 
  1383)    207774.5  Rx         0401  8  1B 2A 77 9D 95 9D 89 9D 
  1384)    207774.8  Rx         07D5  8  2C 3F 3D 00 00 00 00 00 
  1385)    207775.0  Rx         0379  8  0A 00 00 00 03 00 0C 03 
  1386)    207775.3  Rx         07D5  8  32 00 00 00 00 00 00 00 
  1387)    207775.5  Rx         07D7  8  32 0D 00 00 00 00 00 00 
  1388)    207775.7  Rx         0423  7  00 00 10 00 00 00 00 
  1389)    207776.9  Rx         0261  8  BB 50 0A 00 00 40 75 F8 
  1390)    207778.2  Rx         03AE  8  F4 3F 00 08 00 00 60 9C 
  1391)    207778.4  Rx         023E  8  F4 01 3A C0 FA FC 1F 44 
  1392)    207779.9  Rx         0201  8  02 00 00 00 00 00 00 00 
  1393)    207780.2  Rx         0282  8  3C CD 42 0B 44 D5 02 24 
  1394)    207780.5  Rx         022A  4  00 00 59 18 
  1395)    207780.9  Rx         02E1  8  66 80 08 00 1B E1 CA 69 
  1396)    207781.3  Rx         0288  8  01 06 18 4C 00 60 11 66 
  1397)    207781.5  Rx         0118  8  6B 61 95 00 18 C8 80 FC 
  1398)    207781.8  Rx         0243  8  04 FC 33 F0 F1 7B FF FF 
  1399)    207781.9  Rx         0139  1  00 
  1400)    207782.1  Rx         0266  8  EA 07 0E 2D 0D 00 9F 01 
  1401)    207782.4  Rx         0129  8  1E 2E F8 5F FE 1F FF 3F 
  1402)    207782.6  Rx         01D8  8  29 A8 3E D5 07 00 60 24 
  1403)    207782.8  Rx         0257  8  6E C1 3B 17 04 E0 1D 01 
  1404)    207783.1  Rx         02C3  8  00 00 C0 4B 01 00 80 CB 
  1405)    207783.3  Rx         01E5  8  18 6C 04 00 00 00 60 CE 
  1406)    207783.6  Rx         02E8  8  01 01 00 00 06 00 B0 A2 
  1407)    207783.8  Rx         0132  6  E9 97 F5 00 1F 42 
  1408)    207784.0  Rx         03F5  8  00 00 C8 38 82 0C 00 00 
  1409)    207784.2  Rx         03A2  8  32 A9 FF FF 03 00 00 00 
  1410)    207785.0  Rx         02C1  8  EB 1A 98 00 00 00 00 00 
  1411)    207785.2  Rx         025B  8  D3 80 00 05 CA 8C 10 19 
  1412)    207785.4  Rx         0545  8  30 05 53 F0 A1 1F 7A FC 
  1413)    207785.7  Rx         0677  8  01 00 00 00 00 00 00 00 
  1414)    207786.1  Rx         01F8  4  00 00 00 00 
  1415)    207786.4  Rx         078A  8  01 00 05 00 9D 0D 0B 00 
  1416)    207786.9  Rx         03A1  8  C1 FF FF 7B 3D 00 D0 07 
  1417)    207788.2  Rx         03AE  8  F4 3F 00 08 00 00 71 AD 
  1418)    207788.4  Rx         03C2  8  00 55 55 55 00 00 6A 05 
  1419)    207788.6  Rx         040A  8  09 10 00 00 00 00 F0 17 
  1420)    207788.9  Rx         037A  8  D2 00 00 00 00 00 00 00 
  1421)    207789.1  Rx         0381  8  0B 00 00 00 00 00 00 00 
  1422)    207789.4  Rx         06E8  8  40 ED 00 12 0A A0 00 00 
  1423)    207789.6  Rx         0682  8  00 00 00 40 04 04 F0 F5 
  1424)    207791.3  Rx         02A8  8  01 01 00 00 06 00 00 B2 
  1425)    207791.5  Rx         0234  8  2F 00 03 FA E8 03 E0 92 
  1426)    207791.8  Rx         0263  8  04 00 00 00 A0 1C 00 00 
  1427)    207792.0  Rx         045A  8  FD 07 00 7F 02 00 6C 00 
  1428)    207792.3  Rx         01D8  8  29 A2 BE D4 07 00 80 BD 
  1429)    207792.5  Rx         0129  8  42 2F F8 5F FF 1F FF 3F 
  1430)    207792.7  Rx         01E5  8  18 6C 04 00 00 00 00 6E 
  1431)    207793.0  Rx         0118  8  EC 62 95 00 18 C8 00 FC 
  1432)    207793.2  Rx         0249  4  3A 0C 00 00 
  1433)    207793.4  Rx         0261  8  C4 FD 8F 4F 00 40 84 91 
  1434)    207793.6  Rx         0132  6  EE 97 FA 00 40 42 
  1435)    207793.8  Rx         0266  8  E9 07 0D 2C 0D 00 9F 01 
  1436)    207793.9  Rx         020E  2  14 04 
  1437)    207794.2  Rx         0289  8  00 00 00 00 00 00 00 14 
  1438)    207794.3  Rx         02D1  2  FF 01 
  1439)    207794.6  Rx         0401  8  1C 2A 75 9D A0 9D 9B 9D 
  1440)    207794.6  Rx         0419  1  00 
  1441)    207794.9  Rx         0448  6  20 00 10 10 00 00 
  1442)    207795.1  Rx         02E1  8  10 21 04 00 10 00 00 04 
  1443)    207795.3  Rx         039D  5  1F 56 01 28 00 
  1444)    207795.8  Rx         0359  8  01 00 00 00 00 00 00 00 
  1445)    207797.6  Rx         0225  4  55 55 FA 00 
  1446)    207798.1  Rx         02D7  5  80 A1 58 83 0B 
  1447)    207801.3  Rx         0428  6  20 00 00 10 00 00 
  1448)    207801.5  Rx         0118  8  AC 63 95 00 18 C8 C0 FB 
  1449)    207801.7  Rx         0243  8  00 FC CF 8C 9B 64 0D 2C 
  1450)    207802.0  Rx         022B  8  FF FF FF FF FF FF FF FF 
  1451)    207802.2  Rx         0266  8  E9 07 0D 2C 0D 00 9F 01 
  1452)    207802.5  Rx         0129  8  A7 20 F8 5F FF 1F FF 3F 
  1453)    207802.7  Rx         01D8  8  29 9E FE D3 07 00 A0 18 
  1454)    207802.9  Rx         0257  8  67 C2 3B 17 04 D8 1D 01 
  1455)    207803.1  Rx         01E5  8  18 6C 04 00 00 00 20 8E 
  1456)    207803.4  Rx         0441  8  66 01 B6 C3 58 00 35 D6 
  1457)    207803.6  Rx         0132  6  F0 97 FE 00 34 42 
  1458)    207803.8  Rx         0283  6  01 04 00 00 41 00 
  1459)    207804.0  Rx         0421  7  50 14 00 00 00 D0 48 
  1460)    207804.2  Rx         04E2  8  5D 05 F0 11 01 35 00 00 
  1461)    207804.9  Rx         0361  5  29 0C 18 02 00 
  1462)    207805.1  Rx         0201  8  03 00 00 00 00 00 00 00 
  1463)    207805.4  Rx         02BF  7  00 00 00 00 00 00 01 
  1464)    207805.6  Rx         02C1  8  04 00 00 00 00 00 00 00 
  1465)    207805.8  Rx         0211  6  9D 12 70 07 00 01 
  1466)    207808.9  Rx         02E1  8  39 ED 39 B5 0D 00 00 00 
  1467)    207809.2  Rx         0261  8  05 A2 33 C9 9A 42 90 3D 
  1468)    207809.4  Rx         02F3  8  8E 0E 0B 04 00 20 00 02 
  1469)    207809.6  Rx         0420  7  28 01 40 4B 00 80 01 
  1470)    207809.8  Rx         0273  8  89 E1 10 40 C8 02 30 01 
  1471)    207810.1  Rx         039A  8  3C 17 FB 92 FF FD FD 61 
  1472)    207810.3  Rx         0262  8  0B 00 9F F6 00 F0 52 12 
  1473)    207810.6  Rx         03C0  8  03 00 00 00 00 00 00 00 
  1474)    207810.9  Rx         03FD  8  01 00 02 00 00 18 53 80 
  1475)    207811.1  Rx         07AA  8  03 D0 F8 0A 08 03 00 00 
  1476)    207811.7  Rx         0263  8  E0 43 F6 6A A6 EF 42 1F 
  1477)    207812.0  Rx         01D8  8  29 9A 7E D3 07 00 C0 B4 
  1478)    207812.3  Rx         01E5  8  18 6C 04 00 00 00 40 AE 
  1479)    207812.5  Rx         0129  8  4F 21 F7 5F FF 1F FF 3F 
  1480)    207813.0  Rx         0118  8  2E 64 95 00 18 C8 40 FC 
  1481)    207813.3  Rx         01FB  8  05 02 00 00 00 00 00 00 
  1482)    207813.5  Rx         0266  8  E9 07 0E 2D 0D 00 9F 01 
  1483)    207813.7  Rx         0132  6  F1 97 FF 00 2F 42 
  1484)    207813.9  Rx         0401  8  1D 2A 98 9D 9A 9D 9A 9D 
  1485)    207814.1  Rx         02C4  8  2A 40 00 00 C7 90 06 00 
  1486)    207814.5  Rx         0204  8  01 00 00 FF 00 00 00 00 
  1487)    207814.9  Rx         0264  6  2C 00 00 00 E0 01 
  1488)    207815.2  Rx         0224  8  04 08 00 20 DD 00 10 08 
  1489)    207815.6  Rx         02A4  8  71 3F 7C E1 39 4F FA FF 
  1490)    207815.8  Rx         0103  8  22 B3 88 04 76 40 21 32 
  1491)    207816.0  Rx         02B4  6  85 05 3C 0F 54 01 
  1492)    207816.2  Rx         0364  4  00 82 90 1E 
  1493)    207816.4  Rx         03A4  8  01 00 00 00 00 00 00 00 
  1494)    207816.7  Rx         0552  8  00 00 00 00 00 00 F0 47 
  1495)    207817.2  Rx         03A2  8  A0 65 73 F6 04 00 C6 6F 
  1496)    207817.5  Rx         0207  8  00 02 08 01 05 00 00 00 
  1497)    207817.9  Rx         0719  8  33 00 10 00 00 00 00 00 
  1498)    207818.1  Rx         023E  8  F4 01 3A C0 FA FC 2F 54 
  1499)    207818.3  Rx         0545  8  01 00 00 00 00 10 80 DB 
  1500)    207820.9  Rx         0221  8  61 05 55 55 01 02 C0 F6 
  1501)    207821.4  Rx         0118  8  2F 65 95 00 18 C8 40 FC 
  1502)    207821.6  Rx         0266  8  E9 07 0D 2C 0D 00 9F 01 
  1503)    207821.8  Rx         0123  8  01 00 00 00 00 3F 00 00 
  1504)    207822.1  Rx         0243  8  01 FC 3F 66 3F 00 63 62 
  1505)    207822.3  Rx         0257  8  58 B3 3B 17 04 D8 1D 01 
  1506)    207822.6  Rx         0129  8  AB 22 F7 5F FE 1F FF 3F 
  1507)    207822.8  Rx         01D8  8  29 94 BE D2 07 00 E0 0D 
  1508)    207823.0  Rx         02E1  8  02 00 00 00 FF 00 02 00 
  1509)    207823.2  Rx         01E5  8  18 6C 04 00 00 00 60 CE 
  1510)    207823.4  Rx         0422  6  72 06 00 02 00 00 
  1511)    207823.7  Rx         0132  6  EA 97 04 01 4B 42 
  1512)    207823.9  Rx         02F9  8  D0 FB 07 20 00 00 00 00 
  1513)    207824.2  Rx         031A  8  03 00 00 00 00 00 F0 10 
  1514)    207824.9  Rx         0261  8  00 10 27 00 9D 4A A0 EC 
  1515)    207825.2  Rx         02C1  8  C0 5C FE 00 4C 8E 02 00 
  1516)    207825.4  Rx         0677  8  02 00 00 00 00 00 00 00 
  1517)    207826.0  Rx         03AE  8  F2 3F 00 08 00 00 81 BB 
  1518)    207826.9  Rx         0281  6  2D 00 FF 1F 00 01 
  1519)    207827.2  Rx         0381  8  0C 00 00 00 00 00 00 00 
  1520)    207827.7  Rx         03A3  8  16 D0 00 00 98 0B FC 01 
  1521)    207828.2  Rx         02C2  8  55 5B A9 B6 82 C1 12 AA 
  1522)    207829.9  Rx         0201  8  00 62 61 19 00 E4 FF 00 
  1523)    207830.8  Rx         03F9  8  02 00 00 00 00 00 00 00 
  1524)    207831.7  Rx         0263  8  D1 5B EE 72 A6 CF 42 1F 
  1525)    207831.9  Rx         02B3  8  06 77 B8 5E C7 80 20 E4 
  1526)    207832.2  Rx         01D8  8  29 90 7E D2 07 00 00 E9 
  1527)    207832.4  Rx         0129  8  BC 23 F7 5F FE 1F FF 3F 
  1528)    207832.6  Rx         01E5  8  18 6C 04 00 00 00 00 6E 
  1529)    207832.9  Rx         0118  8  8F 66 95 00 18 C8 A0 FB 
  1530)    207833.1  Rx         03E9  8  F0 88 02 00 00 00 A0 06 
  1531)    207833.3  Rx         0266  8  E9 07 0D 2C 0D 00 9F 01 
