;$FILEVERSION=1.1
;$STARTTIME=46111.7390571528
;
;   Start time: 3/30/2026 17:44:14.538.0
;   Generated by PCAN-View v6.0.0.1040
;
;   Message Number
;   |         Time Offset (ms)
;   |         |        Type
;   |         |        |        ID (hex)
;   |         |        |        |     Data Length
;   |         |        |        |     |   Data Bytes (hex) ...
;   |         |        |        |     |   |
;---+--   ----+----  --+--  ----+---  +  -+ -- -- -- -- -- -- --
     1)         0.1  Rx         0132  6  26 96 E4 FF 09 40 
     2)         0.3  Rx         0263  8  E1 6B EE 62 A6 4F 5F 1F 
     3)         0.5  Rx         03A1  8  08 4E 0C 8A 01 14 82 43 
     4)         0.7  Rx         0207  8  00 06 0C 01 04 00 00 00 
     5)         1.0  Rx         0401  8  11 2A 87 9C 8B 9C 8B 9C 
     6)         1.3  Rx         022B  8  FF FF FF FF FF FF FF FF 
     7)         1.5  Rx         0400  7  00 E0 FB BE EF FB 00 
     8)         1.7  Rx         0393  8  06 00 02 D9 07 20 19 20 
     9)         3.6  Rx         0129  8  8A 21 B0 60 00 20 FF 3F 
    10)         3.8  Rx         02E1  8  10 21 04 00 10 00 00 04 
    11)         4.1  Rx         03E8  8  01 00 00 00 00 00 00 00 
    12)         4.6  Rx         01FA  3  1A C0 01 
    13)         4.8  Rx         04F3  4  00 00 00 00 
    14)         5.4  Rx         0234  8  29 90 02 F6 E8 03 20 57 
    15)         6.1  Rx         0118  8  F8 65 32 00 00 48 00 00 
    16)         6.4  Rx         0266  8  00 00 01 20 00 00 9F 01 
    17)         6.5  Rx         0213  2  78 8D 
    18)         6.8  Rx         0257  8  6B 43 1F 00 00 A0 0F 01 
    19)         7.0  Rx         0108  8  20 0A 00 02 00 FF FF 0D 
    20)         7.2  Rx         0126  5  01 B0 1D 50 45 
    21)         7.3  Rx         0128  4  80 00 E4 0A 
    22)         7.6  Rx         02C4  8  06 1D 83 74 CA 28 13 00 
    23)         7.8  Rx         01D6  8  00 08 04 00 8A 46 0F 05 
    24)         8.0  Rx         01D8  8  29 00 00 00 00 00 E0 E2 
    25)         8.3  Rx         0204  8  01 00 00 FF 00 00 00 00 
    26)         8.6  Rx         01E5  8  02 AC 00 00 00 00 60 F4 
    27)         8.8  Rx         020C  8  36 B8 39 1E 1A 01 30 0E 
    28)         9.0  Rx         0224  8  04 08 00 00 E5 00 10 08 
    29)         9.2  Rx         0253  8  01 61 4F 3F 64 00 2A 04 
    30)         9.4  Rx         0264  6  2D 00 00 00 E0 01 
    31)         9.7  Rx         0268  5  01 01 7B 01 AD 
    32)         9.9  Rx         0243  8  02 FC 4B 0F 05 66 00 00 
    33)        10.1  Rx         0132  6  11 96 E4 FF 07 40 
    34)        10.3  Rx         0279  8  AB DA 0C 01 00 06 62 02 
    35)        10.6  Rx         0285  8  04 00 00 00 00 00 00 00 
    36)        10.7  Rx         0242  3  55 55 86 
    37)        10.9  Rx         02B4  6  3D 05 07 0F 2D 01 
    38)        11.1  Rx         02B6  3  00 30 00 
    39)        11.3  Rx         02C1  8  21 6B 18 64 02 00 00 00 
    40)        11.5  Rx         0395  8  09 0F 0F 4C 35 36 07 7D 
    41)        11.8  Rx         0397  8  00 00 00 D8 1D 00 00 08 
    42)        12.0  Rx         0340  8  05 00 00 00 00 00 00 00 
    43)        12.3  Rx         03E9  8  F0 08 00 00 00 00 40 24 
    44)        12.5  Rx         03F9  8  08 00 00 00 00 00 00 00 
    45)        12.7  Rx         0420  7  28 01 40 4B 00 80 02 
    46)        12.9  Rx         045A  8  C4 C6 45 C7 5F 21 47 43 
    47)        13.2  Rx         0677  8  00 00 00 00 00 00 00 00 
    48)        13.5  Rx         0788  8  C4 CC B1 63 00 00 82 00 
    49)        13.7  Rx         0129  8  C3 22 B0 60 00 20 FF 3F 
    50)        13.9  Rx         0339  8  01 E1 02 00 00 03 40 0C 
    51)        14.2  Rx         04E3  8  03 59 00 00 00 00 28 00 
    52)        14.4  Rx         07A8  8  02 40 C4 F7 4E 0F 00 00 
    53)        15.7  Rx         0261  8  05 22 0B C8 9A 42 D0 D4 
    54)        16.0  Rx         0441  8  3D 85 89 00 32 00 20 06 
    55)        16.7  Rx         0360  8  00 00 00 00 00 00 00 00 
    56)        17.0  Rx         0118  8  F9 66 32 00 00 48 00 00 
    57)        17.2  Rx         07D5  8  2B 00 50 F9 00 00 00 00 
    58)        17.5  Rx         0266  8  00 00 01 20 00 00 9F 01 
    59)        17.7  Rx         07D5  8  2C 3F 3D 00 00 00 00 00 
    60)        18.0  Rx         01D8  8  29 00 00 00 00 00 00 02 
    61)        18.2  Rx         0201  8  59 38 98 00 00 00 00 00 
    62)        18.5  Rx         01E5  8  02 AC 00 00 00 00 00 94 
    63)        18.7  Rx         02E1  8  39 2D 00 FF 0F 00 00 00 
    64)        18.9  Rx         0288  8  03 11 00 40 80 0C 11 7B 
    65)        19.2  Rx         07D5  8  32 00 00 00 00 00 00 00 
    66)        19.3  Rx         0113  3  01 97 01 
    67)        19.6  Rx         07D7  8  32 01 00 00 00 00 00 00 
    68)        19.8  Rx         0263  8  02 00 E0 C7 0F 3E 3E 41 
    69)        20.0  Rx         02B3  8  06 78 BA 5E C5 80 EF E5 
    70)        20.2  Rx         0132  6  22 96 E4 FF 09 40 
    71)        20.5  Rx         0343  8  00 91 48 FE 98 00 00 00 
    72)        20.7  Rx         01F9  8  00 00 00 00 00 00 00 00 
    73)        20.9  Rx         0372  8  06 17 AB 19 26 1B 59 02 
    74)        21.2  Rx         0401  8  12 2A 89 9C 94 9C 80 9C 
    75)        21.4  Rx         03AE  8  AB 40 00 08 00 00 70 64 
    76)        21.5  Rx         07F4  1  01 
    77)        21.8  Rx         07FF  8  05 00 00 01 20 00 80 00 
    78)        22.0  Rx         0318  8  1A 03 0E 16 1E 2C 23 C9 
    79)        22.2  Rx         0458  7  00 00 20 00 00 00 00 
    80)        22.4  Rx         0666  4  00 00 A0 00 
    81)        22.6  Rx         055A  8  04 00 00 00 00 00 00 00 
    82)        22.9  Rx         0102  8  22 B3 48 02 B8 42 A1 09 
    83)        23.1  Rx         0241  7  33 34 D4 0C 0D 45 00 
    84)        23.3  Rx         0405  8  11 33 45 31 45 41 34 48 
    85)        23.6  Rx         0129  8  D4 23 B0 60 00 20 FF 3F 
    86)        23.8  Rx         01FB  8  00 00 00 00 00 00 00 00 
    87)        24.1  Rx         0228  8  03 11 00 40 80 0C 01 0B 
    88)        24.2  Rx         0727  2  03 00 
    89)        24.7  Rx         07AA  8  09 93 06 93 06 01 00 00 
    90)        24.9  Rx         03A2  8  60 45 72 C2 04 80 C2 6F 
    91)        25.2  Rx         0287  8  38 39 37 39 00 03 01 02 
    92)        25.7  Rx         03C3  8  00 00 00 00 00 51 00 00 
    93)        25.9  Rx         03E3  4  00 00 00 00 
    94)        26.1  Rx         0118  8  FA 67 32 00 00 48 00 00 
    95)        26.4  Rx         0266  8  00 00 01 20 00 00 9F 01 
    96)        26.6  Rx         0257  8  6C 44 1F 00 00 A0 0F 01 
    97)        27.5  Rx         0119  4  00 00 00 00 
    98)        27.8  Rx         02C1  8  02 19 06 00 00 D0 92 09 
    99)        28.0  Rx         01D8  8  29 00 00 00 00 00 20 22 
   100)        28.3  Rx         01E5  8  02 AC 00 00 00 00 20 B4 
   101)        28.4  Rx         039D  5  41 58 21 28 00 
   102)        28.7  Rx         0545  8  01 00 00 00 00 10 B0 0B 
   103)        28.9  Rx         0122  8  00 00 12 12 D2 00 00 00 
   104)        29.2  Rx         02A8  8  C2 11 00 00 06 80 70 73 
   105)        29.7  Rx         0243  8  03 00 00 00 10 4E 09 00 
   106)        30.1  Rx         0132  6  20 96 E6 FF 0D 40 
   107)        31.7  Rx         0553  8  00 00 00 00 00 00 C0 18 
   108)        31.9  Rx         0261  8  00 10 0F 00 FF 4F E0 7B 
   109)        32.2  Rx         02E1  8  02 00 00 00 FF 00 02 00 
   110)        32.4  Rx         023E  8  F4 01 3A A6 FA FC 4F 5A 
   111)        33.6  Rx         0129  8  FF 24 B0 60 01 20 FF 3F 
   112)        33.8  Rx         0221  8  60 55 55 15 54 51 71 58 
   113)        34.0  Rx         02E8  8  C2 11 00 00 06 80 60 A3 
   114)        34.3  Rx         02F1  8  0D 49 9B 40 21 80 05 00 
   115)        34.6  Rx         0439  8  00 00 00 00 00 18 02 01 
   116)        34.9  Rx         0272  8  09 80 63 00 00 00 00 00 
   117)        35.4  Rx         025B  8  D3 C0 02 05 CA 8C A0 EB 
   118)        35.8  Rx         0381  8  07 00 00 00 00 00 00 00 
   119)        36.9  Rx         0118  8  FB 68 32 00 00 48 00 00 
   120)        37.2  Rx         0266  8  00 00 01 20 00 00 9F 01 
   121)        37.7  Rx         0247  8  2C 0F FF 0E 00 30 02 00 
   122)        37.9  Rx         01D8  8  29 00 00 00 00 00 40 42 
   123)        38.1  Rx         0227  8  DD 03 18 00 41 00 00 81 
   124)        38.4  Rx         01E5  8  02 AC 00 00 00 00 40 D4 
   125)        38.6  Rx         0383  8  A9 18 1E 00 3B B0 20 06 
   126)        38.9  Rx         0428  6  00 00 00 10 00 00 
   127)        39.8  Rx         0263  8  03 00 00 00 00 00 00 00 
   128)        40.1  Rx         0132  6  20 96 E6 FF 08 40 
   129)        40.3  Rx         0401  8  13 2A 90 9C 88 9C 78 9C 
   130)        40.8  Rx         0282  8  04 35 C2 08 C8 C4 02 24 
   131)        41.2  Rx         078A  8  01 00 03 00 B2 04 8F 02 
   132)        42.1  Rx         0682  8  00 00 00 40 04 04 C0 C5 
   133)        42.8  Rx         0201  8  02 00 00 00 00 00 00 00 
   134)        43.6  Rx         0129  8  45 25 B0 60 00 20 FF 3F 
   135)        43.8  Rx         0423  7  00 00 10 00 00 00 00 
   136)        44.0  Rx         0249  4  5E 09 00 00 
   137)        44.2  Rx         0448  6  00 00 10 10 00 00 
   138)        44.4  Rx         0719  8  0D 00 00 00 00 00 00 00 
   139)        44.8  Rx         03F5  8  00 00 C8 38 82 0C 00 00 
   140)        45.8  Rx         02E1  8  03 6D 66 02 1B 97 00 00 
   141)        46.2  Rx         0118  8  FC 69 32 00 00 48 00 00 
   142)        46.4  Rx         0266  8  00 00 01 20 00 00 9F 01 
   143)        46.7  Rx         0257  8  6D 45 1F 00 00 A0 0F 01 
   144)        46.8  Rx         01F8  4  00 00 00 00 
   145)        47.8  Rx         0261  8  31 00 23 00 8C 49 FA 51 
   146)        48.0  Rx         01D8  8  29 00 00 00 00 00 60 62 
   147)        48.2  Rx         02C1  8  B3 1A 98 00 00 00 00 00 
   148)        48.5  Rx         01E5  8  02 AC 00 00 00 00 60 F4 
   149)        48.8  Rx         0677  8  01 00 00 00 00 00 00 00 
   150)        49.0  Rx         03C2  8  00 55 55 55 00 00 65 05 
   151)        49.2  Rx         040A  8  00 10 00 00 00 00 60 7E 
   152)        49.7  Rx         02C3  8  00 00 00 4C 01 00 80 CB 
   153)        50.0  Rx         0243  8  04 FC A3 F3 01 7D FF FF 
   154)        50.2  Rx         0132  6  1B 96 E6 FF 09 40 
   155)        50.4  Rx         03A1  8  C1 FF FF C7 3D 00 90 13 
   156)        50.6  Rx         0379  8  07 A0 B2 06 0D C0 14 06 
   157)        51.1  Rx         022B  8  FF FF FF FF FF FF FF FF 
   158)        52.7  Rx         0289  8  00 00 00 00 00 00 80 12 
   159)        53.6  Rx         0129  8  9F 26 B0 60 00 20 FF 3F 
   160)        55.2  Rx         0234  8  2F 19 03 40 37 00 34 91 
   161)        55.5  Rx         0473  8  00 00 03 00 00 00 00 00 
   162)        55.8  Rx         03B3  8  10 80 04 30 80 00 B8 88 
   163)        55.9  Rx         02D1  2  FF 01 
   164)        56.9  Rx         0118  8  FD 6A 32 00 00 48 00 00 
   165)        57.2  Rx         0266  8  00 00 01 20 00 00 9F 01 
   166)        57.5  Rx         0139  1  00 
   167)        57.8  Rx         03A2  8  01 00 10 00 00 00 00 00 
   168)        58.0  Rx         01D8  8  29 00 00 00 00 00 80 82 
   169)        58.3  Rx         01E5  8  02 AC 00 00 00 00 00 94 
   170)        58.7  Rx         02D7  5  80 51 36 C3 0D 
   171)        59.8  Rx         0263  8  04 00 00 00 B0 20 00 00 
   172)        60.0  Rx         02E1  8  FC 1F 8B 29 97 80 09 00 
   173)        60.2  Rx         0132  6  2D 96 E6 FF 0A 40 
   174)        60.5  Rx         0320  8  02 00 00 00 00 00 00 00 
   175)        60.7  Rx         0401  8  14 2A 81 9C 8C 9C 8B 9C 
   176)        60.9  Rx         045A  8  FD 07 00 7F 02 00 51 00 
   177)        61.2  Rx         0545  8  02 00 02 00 00 00 C0 0E 
   178)        61.4  Rx         03AE  8  AB 40 00 08 00 00 80 74 
   179)        63.6  Rx         0129  8  88 27 B0 60 00 20 FF 3F 
   180)        63.8  Rx         0261  8  8A 29 29 02 80 5C 01 E9 
   181)        64.6  Rx         037A  8  7B 00 00 00 00 00 00 00 
   182)        64.8  Rx         04E2  8  04 44 40 84 02 40 00 00 
   183)        65.4  Rx         0211  6  A3 18 70 07 00 01 
   184)        65.7  Rx         0225  4  55 55 FA 00 
   185)        65.9  Rx         0441  8  64 01 B6 C3 58 00 25 C4 
   186)        66.1  Rx         0118  8  FE 6B 32 00 00 48 00 00 
   187)        66.4  Rx         0266  8  00 00 01 20 00 00 9F 01 
   188)        66.6  Rx         0257  8  6E 46 1F 00 00 A0 0F 01 
   189)        66.9  Rx         0421  7  00 14 00 00 00 D0 48 
   190)        67.8  Rx         02C1  8  04 00 00 00 00 00 00 00 
   191)        68.0  Rx         01D8  8  29 00 00 00 00 00 A0 A2 
   192)        68.3  Rx         01E5  8  02 AC 00 00 00 00 20 B4 
   193)        68.6  Rx         0201  8  03 00 00 00 00 00 00 00 
   194)        68.8  Rx         02BF  7  00 00 00 00 00 00 01 
   195)        68.9  Rx         039D  5  42 59 21 28 00 
   196)        69.7  Rx         0243  8  00 FC CF 0C 9B 44 0D 49 
   197)        70.1  Rx         0132  6  19 96 E6 FF 05 40 
   198)        70.7  Rx         0262  8  0B 00 D1 FA 00 F0 92 12 
   199)        71.6  Rx         0359  8  4A 06 00 00 EF F5 78 E9 
   200)        71.8  Rx         0283  6  02 05 00 00 41 00 
   201)        72.4  Rx         023E  8  F4 01 3A A6 FA FC 5F 6A 
   202)        73.6  Rx         0129  8  5F 28 B0 60 00 20 FF 3F 
   203)        73.8  Rx         01FB  8  05 02 00 00 00 00 00 00 
   204)        74.1  Rx         02E1  8  05 00 00 00 00 30 26 00 
   205)        74.3  Rx         0381  8  08 00 00 00 00 00 00 00 
   206)        74.7  Rx         022A  4  00 00 19 18 
   207)        76.8  Rx         0552  8  00 00 00 00 00 00 D0 27 
   208)        77.0  Rx         0118  8  FF 6C 32 00 00 48 00 00 
   209)        77.2  Rx         0266  8  00 00 01 20 00 00 9F 01 
   210)        77.7  Rx         03C0  8  02 00 00 00 00 00 00 00 
   211)        78.0  Rx         01D8  8  29 00 00 00 00 00 C0 C2 
   212)        78.2  Rx         01E5  8  02 AC 00 00 00 00 40 D4 
   213)        79.7  Rx         0263  8  E0 43 F6 6A A6 4F 5F 1F 
   214)        80.0  Rx         0261  8  63 4C 0A 00 00 40 15 3C 
   215)        80.2  Rx         0132  6  14 96 E7 FF 0D 40 
   216)        80.4  Rx         02B3  8  07 C2 73 A5 00 00 00 00 
   217)        80.6  Rx         0372  8  07 22 13 99 C8 44 46 1F 
   218)        80.8  Rx         0401  8  15 2A 8A 9C 8A 9C 89 9C 
   219)        82.7  Rx         0422  6  72 06 04 00 00 00 
   220)        83.6  Rx         0129  8  0A 29 B0 60 00 20 FF 3F 
   221)        83.8  Rx         0103  8  22 B3 88 04 C2 12 21 32 
   222)        84.0  Rx         0221  8  61 05 55 55 01 02 80 B6 
   223)        85.7  Rx         039A  8  FD FD FD FD FD 01 00 02 
   224)        86.1  Rx         0118  8  00 6D 32 00 00 48 00 00 
   225)        86.4  Rx         0266  8  00 00 01 20 00 00 9F 01 
   226)        86.6  Rx         06A2  5  00 00 00 00 00 
   227)        86.8  Rx         0257  8  6F 47 1F 00 00 A0 0F 01 
   228)        87.4  Rx         02D2  8  58 2F B5 4E 09 07 9E 1E 
   229)        87.6  Rx         0212  8  59 04 00 00 81 FF 77 31 
   230)        87.9  Rx         01D8  8  29 00 00 00 00 00 E0 E2 
   231)        88.1  Rx         01E5  8  02 AC 00 00 00 00 60 F4 
   232)        88.4  Rx         0252  8  DD 1B E4 71 00 FC 0F 00 
   233)        88.6  Rx         0292  8  FB B6 BB 70 C2 01 00 00 
   234)        88.8  Rx         02C1  8  68 30 FE 00 50 8E 02 00 
   235)        89.1  Rx         02C2  8  20 40 C0 4B 01 00 40 CB 
   236)        89.3  Rx         02E1  8  66 00 08 00 BE FC CA 69 
   237)        89.5  Rx         02F2  2  12 02 
   238)        89.7  Rx         03B2  8  0B E6 1F 11 A0 D3 B5 59 
   239)        89.9  Rx         0123  8  01 00 00 00 00 3F 00 00 
   240)        90.1  Rx         0243  8  01 FC 43 47 40 00 66 66 
   241)        90.4  Rx         0132  6  1D 96 E6 FF 0A 40 
   242)        90.6  Rx         0281  6  19 00 FF 1F 00 01 
   243)        90.8  Rx         03A2  8  12 A8 FF 7F 02 00 00 00 
   244)        90.9  Rx         0419  1  00 
   245)        91.2  Rx         0677  8  02 00 00 00 00 00 00 00 
   246)        91.4  Rx         0712  8  03 2A DA 0B 04 0C 13 0C 
   247)        91.7  Rx         031A  8  03 00 00 00 00 00 60 80 
   248)        92.2  Rx         020E  2  17 07 
   249)        92.8  Rx         0201  8  00 3D 3B 1A 00 E4 FF 00 
   250)        93.6  Rx         0129  8  D5 2A B0 60 00 20 FF 3F 
   251)        93.9  Rx         034A  8  01 00 00 00 00 00 00 60 
   252)        94.0  Rx         0229  3  6D 03 00 
   253)        94.2  Rx         031E  8  01 00 00 00 00 00 00 00 
   254)        94.5  Rx         021D  8  04 00 35 00 00 00 00 00 
   255)        94.6  Rx         0249  4  E2 0A 00 00 
   256)        94.8  Rx         041D  1  14 
   257)        95.0  Rx         043B  8  02 7F 00 FF 00 00 00 00 
   258)        95.2  Rx         0407  7  1A 0F 00 00 00 00 00 
   259)        95.5  Rx         025D  8  14 41 01 2A 04 F0 00 00 
   260)        95.7  Rx         0545  8  C0 02 70 B0 99 98 D9 36 
   261)        96.0  Rx         0261  8  CC 00 90 4B 00 40 24 39 
   262)        96.2  Rx         03A3  8  14 D0 00 00 98 0B FC 01 
   263)        96.4  Rx         054F  8  00 00 00 00 00 00 00 00 
   264)        96.7  Rx         0719  8  33 00 10 00 00 00 00 00 
   265)        96.8  Rx         0409  1  E0 
   266)        97.0  Rx         0118  8  01 6E 32 00 00 48 00 00 
   267)        97.3  Rx         0266  8  00 00 01 20 00 00 9F 01 
   268)        97.8  Rx         01D8  8  29 00 00 00 00 00 00 02 
   269)        98.0  Rx         01E5  8  02 AC 00 00 00 00 00 94 
   270)        98.8  Rx         03C8  8  03 00 00 00 00 00 00 00 
   271)        99.0  Rx         02E2  8  F2 36 2C 49 59 49 09 00 
   272)        99.2  Rx         03C2  8  29 55 00 00 00 00 00 00 
   273)        99.4  Rx         0726  3  0C 00 00 
   274)        99.6  Rx         02F9  8  B0 FB 07 08 EF F5 78 E9 
   275)        99.9  Rx         0263  8  E1 6B EE 62 A6 4F 5F 1F 
   276)       100.1  Rx         0207  8  00 04 0A 01 05 00 00 00 
   277)       100.3  Rx         0132  6  1D 96 E6 FF 0A 40 
   278)       100.5  Rx         03A1  8  08 4E 0C 8A 01 14 A2 63 
   279)       100.8  Rx         0401  8  16 2A 8C 9C 90 9C 88 9C 
   280)       101.1  Rx         022B  8  FF FF FF FF FF FF FF FF 
   281)       101.3  Rx         0400  7  00 E0 FB BE EF FB 00 
   282)       101.7  Rx         0393  8  09 80 63 00 00 00 00 00 
   283)       102.0  Rx         02E1  8  10 21 04 00 10 00 00 04 
   284)       102.9  Rx         03AE  8  AB 40 00 08 00 00 90 84 
   285)       103.6  Rx         0129  8  24 2B B0 60 00 20 FF 3F 
   286)       104.1  Rx         03E8  8  02 00 00 00 00 00 00 00 
   287)       104.7  Rx         01FA  3  1A C0 01 
   288)       105.4  Rx         0234  8  29 90 02 F5 E8 03 40 76 
   289)       105.6  Rx         0333  5  84 30 26 07 00 
   290)       105.8  Rx         0334  8  BF 3F 14 80 FC 07 D2 9E 
   291)       106.1  Rx         03FD  8  00 00 00 3C 20 01 03 80 
   292)       106.3  Rx         0118  8  02 6F 32 00 00 48 00 00 
   293)       106.5  Rx         0266  8  00 00 01 20 00 00 9F 01 
   294)       106.8  Rx         03F9  8  00 00 00 00 02 00 00 00 
   295)       107.0  Rx         0257  8  70 48 1F 00 00 A0 0F 01 
   296)       107.3  Rx         0108  8  23 0B 00 02 00 00 00 0D 
   297)       107.5  Rx         0420  7  28 01 40 4B 00 00 03 
   298)       107.7  Rx         0126  5  01 B0 1D 58 4D 
   299)       107.9  Rx         01D8  8  29 00 00 00 00 00 20 22 
   300)       108.1  Rx         0128  4  80 00 E4 0A 
   301)       108.3  Rx         01E5  8  02 AC 00 00 00 00 20 B4 
   302)       108.6  Rx         01D6  8  00 08 04 00 8A C6 11 05 
   303)       108.8  Rx         0204  8  01 00 00 FF 00 00 00 00 
   304)       109.1  Rx         020C  8  35 B8 39 1E 1A 01 30 0E 
   305)       109.3  Rx         0264  6  2E 00 00 00 E0 01 
   306)       109.4  Rx         0268  5  01 01 7B 01 AD 
   307)       109.7  Rx         0279  8  AC DB 0C 01 00 06 62 02 
   308)       109.9  Rx         0243  8  02 FC 4B 0F 05 66 00 00 
   309)       110.1  Rx         0132  6  19 96 E6 FF 09 40 
   310)       110.3  Rx         02B4  6  40 05 07 0F 33 01 
   311)       110.5  Rx         02B6  3  00 30 00 
   312)       110.7  Rx         02C1  8  21 6B 18 64 02 00 00 00 
   313)       110.8  Rx         0242  3  55 55 86 
   314)       111.1  Rx         0395  8  09 0F 0F 4C 35 36 07 7D 
   315)       111.3  Rx         0397  8  00 00 00 D8 1D 00 00 08 
   316)       111.5  Rx         039D  5  43 5A 21 28 00 
   317)       111.7  Rx         045A  8  C4 C6 45 C7 5F 21 47 43 
   318)       112.0  Rx         0261  8  05 22 0B C8 9A 42 30 34 
   319)       112.2  Rx         0340  8  06 00 00 00 00 00 00 00 
   320)       112.4  Rx         023E  8  F4 01 3A A6 FA FC 6F 7A 
   321)       112.7  Rx         0381  8  09 00 00 00 00 00 00 00 
   322)       112.9  Rx         0748  5  2B 20 0A 00 00 
   323)       113.1  Rx         0788  8  01 00 00 00 FF A1 F8 12 
   324)       113.4  Rx         07AA  8  0A D6 06 D6 06 00 5F 00 
   325)       113.6  Rx         0129  8  44 2C B0 60 00 20 FF 3F 
   326)       113.8  Rx         02C4  8  A7 07 B6 90 81 0C 23 07 
   327)       114.1  Rx         0339  8  01 E1 02 00 00 03 40 0C 
   328)       114.3  Rx         0224  8  04 08 00 E0 E4 00 10 08 
   329)       114.6  Rx         04E3  8  04 16 60 81 07 60 00 00 
   330)       114.8  Rx         07A8  8  C0 CC B1 63 00 00 82 00 
   331)       115.8  Rx         02E1  8  39 2D 00 FF 0F 00 00 00 
   332)       116.0  Rx         0441  8  3D 85 89 00 32 00 28 0E 
   333)       116.8  Rx         0360  8  01 00 00 00 00 00 00 00 
   334)       117.0  Rx         0118  8  F3 60 32 00 00 48 00 00 
   335)       117.2  Rx         07D5  8  2B 00 50 F9 00 00 00 00 
   336)       117.5  Rx         0266  8  00 00 01 20 00 00 9F 01 
   337)       117.7  Rx         07D5  8  2C 3F 3D 00 00 00 00 00 
   338)       118.0  Rx         01D8  8  29 00 00 00 00 00 40 42 
   339)       118.2  Rx         0201  8  59 28 98 00 00 00 00 00 
   340)       118.4  Rx         01E5  8  02 AC 00 00 00 00 40 D4 
   341)       118.7  Rx         07D5  8  32 00 00 00 00 00 00 00 
   342)       118.9  Rx         0288  8  03 11 00 40 80 0C 21 8B 
   343)       119.2  Rx         07D7  8  32 01 00 00 00 00 00 00 
   344)       119.3  Rx         0113  3  01 97 01 
   345)       119.5  Rx         07F4  1  01 
   346)       119.7  Rx         07FF  8  06 00 30 00 00 00 00 C0 
   347)       119.9  Rx         0263  8  02 00 E0 C7 0F 3E 3E 41 
   348)       120.1  Rx         0132  6  1C 96 E4 FF 0A 40 
   349)       120.4  Rx         0318  8  1A 03 0E 16 1E 2C 25 CB 
   350)       120.6  Rx         0343  8  00 91 40 1E 99 00 00 00 
   351)       120.9  Rx         01F9  8  00 00 00 00 00 00 00 00 
   352)       121.1  Rx         0401  8  17 2A 89 9C 8B 9C 8C 9C 
   353)       121.3  Rx         0458  7  00 00 20 00 00 00 00 
   354)       122.7  Rx         0102  8  22 B3 48 02 B8 42 A1 09 
   355)       123.0  Rx         0241  7  34 34 14 0D 0D 45 00 
   356)       123.6  Rx         0129  8  56 2D B0 60 00 20 FF 3F 
   357)       123.9  Rx         01FB  8  00 00 00 00 00 00 00 00 
   358)       124.1  Rx         0228  8  03 11 00 40 80 0C 11 1B 
   359)       124.3  Rx         03A2  8  60 A5 F2 C1 04 80 C2 6F 
   360)       124.8  Rx         0287  8  38 39 37 39 00 03 01 02 
   361)       125.8  Rx         03C3  8  55 55 55 01 00 00 00 00 
   362)       126.2  Rx         0118  8  F4 61 32 00 00 48 00 00 
   363)       126.4  Rx         0266  8  00 00 01 20 00 00 9F 01 
   364)       126.6  Rx         0257  8  71 49 1F 00 00 A0 0F 01 
   365)       126.9  Rx         0545  8  01 00 00 00 00 10 E0 3B 
   366)       127.6  Rx         0119  4  00 00 00 00 
   367)       127.8  Rx         0261  8  00 10 0F 00 FF 4F 40 DB 
   368)       128.0  Rx         01D8  8  29 00 00 00 00 00 60 62 
   369)       128.3  Rx         01E5  8  02 AC 00 00 00 00 60 F4 
   370)       128.6  Rx         02C1  8  02 19 06 00 00 D0 92 09 
   371)       128.8  Rx         02A8  8  C2 11 00 00 06 80 80 83 
   372)       129.0  Rx         0122  8  01 00 00 00 00 3F 00 00 
   373)       129.3  Rx         0677  8  03 00 00 00 00 00 00 00 
   374)       129.7  Rx         0243  8  03 00 00 00 10 4E 09 00 
   375)       130.0  Rx         02E1  8  02 00 00 00 FF 00 02 00 
   376)       130.2  Rx         0132  6  1D 96 E4 FF 09 40 
   377)       131.8  Rx         0553  8  00 00 00 00 00 00 D0 28 
   378)       133.6  Rx         0129  8  89 2E B0 60 00 20 FF 3F 
   379)       133.8  Rx         0221  8  60 55 55 15 54 51 91 78 
   380)       134.1  Rx         02F1  8  0E 00 00 00 00 00 00 00 
   381)       134.3  Rx         02E8  8  C2 11 00 00 06 80 70 B3 
   382)       134.7  Rx         0439  8  00 00 00 00 00 18 02 01 
   383)       134.9  Rx         0272  8  06 00 03 C1 07 20 19 20 
   384)       136.1  Rx         0308  8  00 01 00 A0 01 80 07 2F 
   385)       136.5  Rx         025B  8  D3 C0 02 05 CA 8C B0 FB 
   386)       136.9  Rx         0118  8  F5 62 32 00 00 48 00 00 
   387)       137.2  Rx         0266  8  00 00 01 20 00 00 9F 01 
   388)       137.6  Rx         0247  8  2C 0F FF 0F 00 2E 02 00 
   389)       137.9  Rx         01D8  8  29 00 00 00 00 00 80 82 
   390)       138.1  Rx         01E5  8  02 AC 00 00 00 00 00 94 
   391)       138.3  Rx         0227  8  DF 03 18 00 41 00 00 81 
   392)       138.5  Rx         0383  8  A9 18 1E 00 3B B0 20 06 
   393)       138.7  Rx         0428  6  00 00 00 10 00 00 
   394)       139.7  Rx         0263  8  03 00 00 00 00 00 00 00 
   395)       140.0  Rx         02B3  8  08 FA 00 00 5C 8B 75 00 
   396)       140.2  Rx         0132  6  1B 96 E5 FF 09 40 
   397)       140.4  Rx         0372  8  08 F4 A1 0F 7D E8 43 1F 
   398)       140.6  Rx         03AE  8  AB 40 00 08 00 00 A0 94 
   399)       140.9  Rx         0282  8  04 35 C2 08 C8 C4 02 24 
   400)       141.1  Rx         0401  8  18 2A 79 9C 8D 9C 98 9C 
   401)       141.4  Rx         078A  8  01 00 04 00 01 06 9C 00 
   402)       142.5  Rx         0682  8  00 00 00 40 04 04 D0 D5 
   403)       142.8  Rx         0201  8  02 00 00 00 00 00 00 00 
   404)       143.6  Rx         0129  8  78 2F B0 60 00 20 FF 3F 
   405)       143.8  Rx         0261  8  31 00 29 00 8C 49 5A B7 
   406)       144.0  Rx         0249  4  28 0B 00 00 
   407)       144.2  Rx         02E1  8  03 6D 66 02 1B 97 00 00 
   408)       144.5  Rx         0423  7  00 00 10 00 00 00 00 
   409)       144.7  Rx         0448  6  00 00 10 10 00 00 
   410)       144.9  Rx         03F5  8  00 00 C8 38 82 0C 00 00 
   411)       145.1  Rx         0719  8  03 00 00 00 00 00 00 00 
   412)       146.2  Rx         0118  8  F6 63 32 00 00 48 00 00 
   413)       146.4  Rx         0266  8  00 00 01 20 00 00 9F 01 
   414)       146.6  Rx         0257  8  72 4A 1F 00 00 A0 0F 01 
   415)       146.8  Rx         01F8  4  00 00 00 00 
   416)       147.8  Rx         02C1  8  B3 1A 98 00 00 00 00 00 
   417)       148.1  Rx         01D8  8  29 00 00 00 00 00 A0 A2 
   418)       148.3  Rx         01E5  8  02 AC 00 00 00 00 20 B4 
   419)       148.5  Rx         039D  5  44 5B 21 28 00 
   420)       148.8  Rx         03E2  7  02 00 00 00 00 C0 00 
   421)       149.0  Rx         03C2  8  00 55 55 55 00 00 65 05 
   422)       149.8  Rx         02C3  8  55 03 A8 06 00 00 12 A5 
   423)       150.0  Rx         0243  8  04 FC A3 F3 FD 7C FF FF 
   424)       150.2  Rx         0132  6  18 96 E6 FF 0A 40 
   425)       150.4  Rx         022B  8  FF FF FF FF FF FF FF FF 
   426)       150.7  Rx         0379  8  08 00 00 00 03 00 0C 03 
   427)       151.0  Rx         0381  8  0A 00 00 00 00 00 00 00 
   428)       151.2  Rx         03A1  8  C1 FF FF BB 3D 00 B0 27 
   429)       152.2  Rx         023E  8  F4 01 3A A6 FA FC 7F 8A 
   430)       152.7  Rx         0289  8  00 00 00 00 00 00 80 12 
   431)       153.6  Rx         0129  8  9D 20 B0 60 00 20 FF 3F 
   432)       155.2  Rx         0234  8  2E 19 03 40 37 00 54 B0 
   433)       155.7  Rx         02D1  2  FF 01 
   434)       156.8  Rx         03A2  8  01 00 10 00 00 00 00 00 
   435)       157.0  Rx         0118  8  F7 64 32 00 00 48 00 00 
   436)       157.2  Rx         0266  8  00 00 01 20 00 00 9F 01 
   437)       157.5  Rx         0139  1  00 
   438)       157.7  Rx         02E3  7  70 00 00 F6 01 0B 00 
   439)       158.0  Rx         01D8  8  29 00 00 00 00 00 C0 C2 
   440)       158.2  Rx         01E5  8  02 AC 00 00 00 00 40 D4 
   441)       158.5  Rx         02E1  8  FC 1F 8A 29 97 84 09 00 
   442)       158.7  Rx         02D7  5  80 51 36 C3 0D 
   443)       159.8  Rx         0263  8  04 00 00 00 B0 20 00 00 
   444)       160.0  Rx         0261  8  8A 29 29 02 80 5C 61 49 
   445)       160.2  Rx         0132  6  0D 96 E7 FF 0D 40 
   446)       160.4  Rx         0401  8  19 2A 95 9C 92 9C 91 9C 
   447)       160.6  Rx         03BB  2  35 0F 
   448)       160.8  Rx         045A  8  FD 07 00 7F 02 00 51 00 
   449)       161.0  Rx         02F3  8  8E 0E 0B 04 00 20 00 02 
   450)       161.3  Rx         0545  8  02 00 02 00 00 00 F0 3E 
   451)       161.5  Rx         033A  8  B6 A8 93 4C FE FF 57 61 
   452)       161.7  Rx         0273  8  89 E1 10 40 C8 02 30 01 
   453)       162.0  Rx         03FD  8  01 00 02 00 00 18 53 80 
   454)       163.6  Rx         0129  8  27 21 B0 60 01 20 FF 3F 
   455)       164.6  Rx         037A  8  C0 00 00 00 00 00 00 00 
   456)       164.9  Rx         04E2  8  0D 00 B0 41 02 38 00 00 
   457)       165.4  Rx         0211  6  A4 19 70 07 00 01 
   458)       165.7  Rx         0225  4  55 55 FA 00 
   459)       165.9  Rx         0441  8  64 01 B6 C3 58 00 2D CC 
   460)       166.1  Rx         0118  8  F8 65 32 00 00 48 00 00 
   461)       166.4  Rx         0266  8  00 00 01 20 00 00 9F 01 
   462)       166.6  Rx         0257  8  73 4B 1F 00 00 A0 0F 01 
   463)       166.9  Rx         0421  7  00 14 00 00 00 D0 48 
   464)       167.8  Rx         0321  8  3C D6 A8 8F 01 8A 90 88 
   465)       168.0  Rx         01D8  8  29 00 00 00 00 00 E0 E2 
   466)       168.3  Rx         01E5  8  02 AC 00 00 00 00 60 F4 
   467)       168.5  Rx         0201  8  03 00 00 00 00 00 00 00 
   468)       168.8  Rx         02C1  8  04 00 00 00 00 00 00 00 
   469)       169.0  Rx         0677  8  04 00 00 00 00 00 00 00 
   470)       169.3  Rx         0718  7  03 00 00 00 00 00 00 
   471)       169.7  Rx         0243  8  00 FC CF 0C 9B 44 0D 49 
   472)       170.1  Rx         0132  6  15 96 E6 FF 0A 40 
   473)       170.7  Rx         0262  8  0B 00 D1 FA 00 F0 92 12 
   474)       171.6  Rx         0359  8  4B 00 00 00 00 00 00 00 
   475)       171.9  Rx         0283  6  02 05 00 00 41 00 
   476)       172.1  Rx         02E1  8  05 00 00 00 00 30 26 00 
   477)       173.6  Rx         0129  8  C3 22 B0 60 00 20 FF 3F 
   478)       173.8  Rx         01FB  8  05 02 00 00 00 00 00 00 
   479)       174.6  Rx         022A  4  00 00 19 18 
   480)       175.8  Rx         0261  8  63 4C 0A 00 00 40 75 9C 
   481)       176.7  Rx         0552  8  00 00 00 00 00 00 E0 37 
   482)       177.0  Rx         0118  8  F9 66 32 00 00 48 00 00 
   483)       177.2  Rx         0266  8  00 00 01 20 00 00 9F 01 
   484)       177.7  Rx         03C0  8  03 00 00 00 00 00 00 00 
   485)       178.0  Rx         01D8  8  29 00 00 00 00 00 00 02 
   486)       178.3  Rx         01E5  8  02 AC 00 00 00 00 00 94 
   487)       179.8  Rx         0263  8  E0 43 F6 6A A6 4F 5F 1F 
   488)       180.1  Rx         0132  6  18 96 E6 FF 09 40 
   489)       180.3  Rx         0401  8  1A 2A 96 9C 8F 9C 90 9C 
   490)       181.3  Rx         03AE  8  AB 40 00 08 00 00 B0 A4 
   491)       182.7  Rx         0422  6  72 06 04 00 00 00 
   492)       183.6  Rx         0129  8  D4 23 B0 60 00 20 FF 3F 
   493)       183.8  Rx         0103  8  22 B3 88 04 C2 14 21 32 
   494)       184.1  Rx         0221  8  61 05 55 55 01 02 A0 D6 
   495)       185.7  Rx         039A  8  0C 1B 07 9B FF FD FD 61 
   496)       185.9  Rx         02E1  8  66 00 08 00 BE FC CA 69 
   497)       186.2  Rx         0118  8  FA 67 32 00 00 48 00 00 
   498)       186.4  Rx         0266  8  00 00 01 20 00 00 9F 01 
   499)       186.6  Rx         06A2  5  00 00 00 00 00 
   500)       186.8  Rx         0257  8  74 4C 1F 00 00 A0 0F 01 
   501)       187.0  Rx         07AA  8  0B 50 00 29 4E 00 3F 00 
   502)       187.8  Rx         02C1  8  68 30 FE 00 50 8E 02 00 
   503)       188.0  Rx         01D8  8  29 00 00 00 00 00 20 22 
   504)       188.3  Rx         01E5  8  02 AC 00 00 00 00 20 B4 
   505)       188.5  Rx         0212  8  59 04 00 00 81 FF 77 31 
   506)       188.8  Rx         0252  8  DD 1B E5 71 00 FC 0F 00 
   507)       189.0  Rx         0292  8  FB B6 BB 70 C2 01 00 00 
   508)       189.2  Rx         02C2  8  55 5B A9 06 00 00 12 A5 
   509)       189.5  Rx         02D2  8  58 2F B5 4E 09 07 9E 1E 
   510)       189.6  Rx         02F2  2  12 02 
   511)       189.8  Rx         0123  8  00 00 12 12 D2 00 00 00 
   512)       190.1  Rx         0243  8  01 FC 42 47 41 00 66 66 
   513)       190.2  Rx         0132  6  23 96 E6 FF 07 40 
   514)       190.5  Rx         0281  6  19 00 FF 1F 00 01 
   515)       190.7  Rx         0381  8  0B 00 00 00 00 00 00 00 
   516)       190.9  Rx         039D  5  45 5C 21 28 00 
   517)       191.1  Rx         03A2  8  F2 A7 FF 7F 02 00 00 00 
   518)       191.3  Rx         0419  1  00 
   519)       191.5  Rx         070B  8  07 00 00 00 00 00 00 00 
   520)       191.7  Rx         0712  8  04 2A DD 0B 49 0C 5E 0C 
   521)       192.0  Rx         0261  8  CC 00 88 4B 00 40 84 91 
   522)       192.3  Rx         020E  2  10 00 
   523)       192.6  Rx         023E  8  F4 01 3A A6 FA FC 8F 9A 
   524)       192.9  Rx         0201  8  00 3D 3B 1A 00 E4 FF 00 
   525)       193.1  Rx         0545  8  10 03 58 80 99 98 09 6F 
   526)       193.6  Rx         0129  8  52 24 B0 60 00 20 FF 3F 
   527)       193.8  Rx         0719  8  14 00 00 00 00 00 00 00 
   528)       194.0  Rx         0229  3  43 04 00 
   529)       194.2  Rx         075D  8  03 00 80 00 00 00 00 00 
   530)       194.4  Rx         0249  4  3A 0C 00 00 
   531)       194.6  Rx         031E  8  02 00 00 00 00 00 00 00 
   532)       194.9  Rx         054F  8  00 00 00 00 00 00 00 00 
   533)       195.2  Rx         021D  8  04 00 35 00 00 00 00 00 
   534)       195.3  Rx         0409  1  E0 
   535)       195.5  Rx         025D  8  14 41 01 2A 04 F0 00 00 
   536)       195.7  Rx         0399  3  00 00 00 
   537)       195.9  Rx         03A3  8  14 D0 00 00 98 0B FC 01 
   538)       196.1  Rx         041D  1  14 
   539)       196.9  Rx         0118  8  FB 68 32 00 00 48 00 00 
   540)       197.2  Rx         0266  8  00 00 01 20 00 00 9F 01 
   541)       197.8  Rx         01D8  8  29 00 00 00 00 00 40 42 
   542)       198.1  Rx         01E5  8  02 AC 00 00 00 00 40 D4 
   543)       198.8  Rx         03C8  8  04 00 00 00 00 00 00 00 
   544)       199.0  Rx         03A8  8  1C E0 7F 51 FC 0F 00 00 
   545)       199.3  Rx         03C2  8  29 55 00 00 00 00 00 00 
   546)       199.5  Rx         0207  8  00 04 0A 01 05 00 00 00 
   547)       199.8  Rx         02F9  8  B0 FB 07 10 00 00 00 00 
   548)       200.0  Rx         0263  8  E1 6B EE 62 A6 4F 5F 1F 
   549)       200.2  Rx         0132  6  1F 96 E6 FF 0C 40 
   550)       200.4  Rx         022B  8  FF FF FF FF FF FF FF FF 
   551)       200.7  Rx         02B3  8  49 00 F0 21 00 00 0C 06 
   552)       200.9  Rx         02E1  8  10 21 04 00 10 00 00 04 
   553)       201.2  Rx         0372  8  09 00 00 00 00 F8 3F 00 
   554)       201.4  Rx         03A1  8  08 4E 0C 8A 01 14 C2 83 
   555)       201.6  Rx         0400  7  00 E0 FB BE EF FB 00 
   556)       201.9  Rx         0393  8  06 00 01 C1 07 20 19 20 
   557)       202.1  Rx         0401  8  1B 2A 67 9C 8C 9C 78 9C 
   558)       203.6  Rx         0129  8  45 25 B0 60 00 20 FF 3F 
   559)       204.1  Rx         03E8  8  03 00 00 00 00 00 00 00 
   560)       204.7  Rx         01FA  3  1A C0 01 
   561)       205.4  Rx         0234  8  29 90 02 F6 E8 03 60 97 
   562)       206.1  Rx         0294  8  14 8D 00 00 00 00 00 00 
   563)       206.3  Rx         0118  8  FC 69 32 00 00 48 00 00 
   564)       206.6  Rx         0266  8  00 00 01 20 00 00 9F 01 
   565)       206.8  Rx         03F9  8  01 00 00 00 00 00 00 00 
   566)       207.1  Rx         0257  8  75 4D 1F 00 00 A0 0F 01 
   567)       207.3  Rx         0108  8  22 0C 00 02 00 FF FF 0D 
   568)       207.5  Rx         0126  5  01 B0 1D 60 55 
   569)       207.7  Rx         0204  8  01 00 00 FF 00 00 00 00 
   570)       208.0  Rx         01D8  8  29 00 00 00 00 00 60 62 
   571)       208.2  Rx         0128  4  80 00 E4 0A 
   572)       208.4  Rx         01E5  8  02 AC 00 00 00 00 60 F4 
   573)       208.6  Rx         01D6  8  00 08 04 00 8A 06 1C 05 
   574)       208.9  Rx         020C  8  35 B8 39 1E 1A 01 30 0E 
   575)       209.1  Rx         0261  8  05 22 0B C8 9A 42 90 94 
   576)       209.3  Rx         0264  6  2F 00 00 00 E0 01 
   577)       209.5  Rx         0268  5  01 01 7B 01 AD 
   578)       209.7  Rx         0279  8  AD DC 0C 01 00 06 62 02 
   579)       210.0  Rx         0243  8  02 FC 53 0F 05 66 00 00 
   580)       210.2  Rx         0132  6  1B 96 E6 FF 0A 40 
   581)       210.3  Rx         02B4  6  3C 05 07 0F 30 01 
   582)       210.5  Rx         02B6  3  00 30 00 
   583)       210.8  Rx         02C1  8  21 6B 18 64 02 00 00 00 
   584)       210.9  Rx         0242  3  55 55 86 
   585)       211.2  Rx         02C4  8  68 36 00 54 81 CD 02 A9 
   586)       211.4  Rx         0395  8  09 0F 0F 4C 35 36 07 7D 
   587)       211.6  Rx         0224  8  04 08 00 E0 E4 00 10 08 
   588)       211.8  Rx         0397  8  00 00 00 D8 1D 00 00 08 
   589)       212.1  Rx         0340  8  07 00 00 00 00 00 00 00 
   590)       212.4  Rx         03FD  8  02 00 00 00 00 00 00 80 
   591)       212.6  Rx         0420  7  28 01 40 4B 00 80 03 
   592)       212.8  Rx         045A  8  C4 C6 45 C7 5F 21 47 42 
   593)       213.0  Rx         0677  8  00 00 00 00 00 00 00 00 
   594)       213.3  Rx         0788  8  02 40 C6 47 4E 03 00 00 
   595)       213.6  Rx         0129  8  9F 26 B0 60 00 20 FF 3F 
   596)       213.8  Rx         02E1  8  39 2D 00 FF 0F 00 00 00 
   597)       214.1  Rx         0339  8  01 E1 02 00 00 03 40 0C 
   598)       214.3  Rx         04E3  8  7D 04 36 B1 00 0A 00 00 
   599)       214.6  Rx         07A8  8  01 00 00 00 FF A1 E8 12 
   600)       215.8  Rx         0441  8  3D 85 89 00 32 00 30 16 
   601)       216.7  Rx         0360  8  02 00 00 00 00 00 00 00 
   602)       217.0  Rx         0118  8  FD 6A 32 00 00 48 00 00 
   603)       217.3  Rx         07D5  8  2B 00 50 F9 00 00 00 00 
   604)       217.5  Rx         0266  8  00 00 01 20 00 00 9F 01 
   605)       217.7  Rx         07D5  8  2C 3F 3D 00 00 00 00 00 
   606)       218.0  Rx         01D8  8  29 00 00 00 00 00 80 82 
   607)       218.2  Rx         0201  8  59 28 98 00 00 00 00 00 
   608)       218.5  Rx         01E5  8  02 AC 00 00 00 00 00 94 
   609)       218.7  Rx         07D5  8  32 00 00 00 00 00 00 00 
   610)       218.9  Rx         0288  8  03 11 00 40 80 0C 31 9B 
   611)       219.2  Rx         07D7  8  32 01 00 00 00 00 00 00 
   612)       219.3  Rx         0113  3  01 97 01 
   613)       219.5  Rx         07F4  1  01 
   614)       219.7  Rx         07FF  8  07 20 00 01 28 00 00 00 
   615)       219.9  Rx         0263  8  02 00 E0 C7 0F 3E 3E 41 
   616)       220.2  Rx         0132  6  20 96 E6 FF 09 40 
   617)       220.4  Rx         0318  8  1A 03 0E 16 1E 2C 27 CD 
   618)       220.6  Rx         0343  8  00 91 64 6E 96 00 00 00 
   619)       220.8  Rx         01F9  8  00 00 00 00 00 00 00 00 
   620)       221.1  Rx         03AE  8  AB 40 00 08 00 00 C0 B4 
   621)       221.3  Rx         0401  8  1C 2A 64 9C 9E 9C 98 9C 
   622)       221.6  Rx         0458  7  00 00 20 00 00 00 00 
   623)       222.7  Rx         0102  8  22 B3 48 02 B8 44 A1 09 
   624)       222.9  Rx         0241  7  34 34 14 0D 0D 45 00 
   625)       223.2  Rx         03A2  8  60 25 72 C0 04 80 C2 6F 
   626)       223.6  Rx         0129  8  25 27 B0 60 01 20 FF 3F 
   627)       223.8  Rx         01FB  8  00 00 00 00 00 00 00 00 
   628)       224.1  Rx         0228  8  03 11 00 40 80 0C 21 2B 
   629)       224.3  Rx         0261  8  00 10 0F 00 FF 4F A0 3B 
   630)       225.3  Rx         0287  8  38 39 37 39 00 03 01 02 
   631)       225.8  Rx         03C3  8  00 00 00 00 00 51 00 00 
   632)       226.0  Rx         0381  8  0C 00 00 00 00 00 00 00 
   633)       226.2  Rx         0118  8  FE 6B 32 00 00 48 00 00 
   634)       226.5  Rx         0266  8  00 00 01 20 00 00 9F 01 
   635)       226.6  Rx         03E3  4  00 00 00 00 
   636)       226.9  Rx         0257  8  76 4E 1F 00 00 A0 0F 01 
   637)       227.1  Rx         0545  8  01 00 00 00 00 10 10 6B 
   638)       227.6  Rx         0119  4  00 00 00 00 
   639)       227.8  Rx         02E1  8  02 00 00 00 FF 00 02 00 
   640)       228.1  Rx         01D8  8  29 00 00 00 00 00 A0 A2 
   641)       228.3  Rx         01E5  8  02 AC 00 00 00 00 20 B4 
   642)       228.5  Rx         02C1  8  02 19 06 00 00 D0 92 09 
   643)       228.7  Rx         039D  5  46 5D 21 28 00 
   644)       229.0  Rx         0122  8  00 00 12 12 D2 00 00 00 
   645)       229.2  Rx         02A8  8  C2 11 00 00 06 80 90 93 
   646)       229.8  Rx         0243  8  03 00 00 00 10 4E 09 00 
   647)       230.1  Rx         0132  6  1E 96 E6 FF 09 40 
   648)       231.7  Rx         0553  8  00 00 00 00 00 00 E0 38 
   649)       232.2  Rx         023E  8  F4 01 3A A6 FA FC 9F AA 
   650)       233.6  Rx         0129  8  5F 28 B0 60 00 20 FF 3F 
   651)       233.8  Rx         02F1  8  0F 61 89 96 99 B3 39 00 
   652)       234.0  Rx         0221  8  60 55 55 15 54 51 B1 98 
   653)       234.3  Rx         02E8  8  C2 11 00 00 06 80 80 C3 
   654)       234.7  Rx         0439  8  00 00 00 00 00 18 02 01 
   655)       234.9  Rx         0272  8  09 80 63 00 00 00 00 00 
   656)       236.4  Rx         025B  8  D3 C0 02 05 CA 8C C0 0B 
   657)       236.9  Rx         0118  8  FF 6C 32 00 00 48 00 00 
   658)       237.1  Rx         0266  8  00 00 01 20 00 00 9F 01 
   659)       237.5  Rx         0247  8  2C 0F FF 0F 00 30 02 00 
   660)       237.7  Rx         0227  8  E6 03 19 00 41 00 00 81 
   661)       238.0  Rx         01D8  8  29 00 00 00 00 00 C0 C2 
   662)       238.2  Rx         01E5  8  02 AC 00 00 00 00 40 D4 
   663)       238.5  Rx         0383  8  A9 18 1E 00 3B B0 20 06 
   664)       238.7  Rx         0428  6  00 00 00 10 00 00 
   665)       239.7  Rx         0263  8  03 00 00 00 00 00 00 00 
   666)       240.0  Rx         0261  8  31 00 40 00 8C 49 BA 2E 
   667)       240.2  Rx         0132  6  10 96 E3 FF 0C 40 
   668)       240.4  Rx         0401  8  1D 2A 94 9C 96 9C 98 9C 
   669)       240.6  Rx         078A  8  01 00 05 00 9D 0D 0A 00 
   670)       240.9  Rx         0282  8  04 35 12 09 C8 C4 02 24 
   671)       241.8  Rx         02E1  8  03 6D 66 02 1B 97 00 00 
   672)       242.8  Rx         0201  8  02 00 00 00 00 00 00 00 
   673)       243.0  Rx         0682  8  00 00 00 40 04 04 E0 E5 
   674)       243.6  Rx         0129  8  0A 29 B0 60 00 20 FF 3F 
   675)       243.8  Rx         0423  7  00 00 10 00 00 00 00 
   676)       244.0  Rx         0249  4  13 0D 00 00 
   677)       244.2  Rx         0448  6  00 00 10 10 00 00 
   678)       244.4  Rx         0719  8  15 FF C9 FF FF 00 00 00 
   679)       244.8  Rx         03F5  8  00 00 C8 38 82 0C 00 00 
   680)       246.1  Rx         0118  8  00 6D 32 00 00 48 00 00 
   681)       246.4  Rx         0266  8  00 00 01 20 00 00 9F 01 
   682)       246.6  Rx         0257  8  77 4F 1F 00 00 A0 0F 01 
   683)       246.8  Rx         01F8  4  00 00 00 00 
   684)       247.8  Rx         02C1  8  B3 1A 98 00 00 00 00 00 
   685)       248.1  Rx         01D8  8  29 00 00 00 00 00 E0 E2 
   686)       248.3  Rx         01E5  8  02 AC 00 00 00 00 60 F4 
   687)       248.5  Rx         0677  8  01 00 00 00 00 00 00 00 
   688)       248.8  Rx         040A  8  00 10 00 00 00 00 70 8E 
   689)       249.0  Rx         03C2  8  00 55 55 55 00 00 65 05 
   690)       249.8  Rx         02C3  8  00 00 00 4C 01 00 80 CB 
   691)       250.0  Rx         0243  8  04 FC A3 F3 01 7D FF FF 
   692)       250.2  Rx         0132  6  1E 96 E5 FF 08 40 
   693)       250.4  Rx         03A1  8  C1 FF FF BB 3D 00 D0 47 
   694)       250.7  Rx         0379  8  09 00 00 00 04 00 0C 03 
   695)       251.1  Rx         022B  8  FF FF FF FF FF FF FF FF 
   696)       252.8  Rx         0289  8  00 00 00 00 00 00 80 12 
   697)       253.6  Rx         0129  8  D5 2A B0 60 00 20 FF 3F 
   698)       255.1  Rx         0234  8  2E 19 03 40 37 00 74 D0 
   699)       255.7  Rx         03A2  8  01 00 10 00 00 00 00 00 
   700)       256.0  Rx         0261  8  8A 29 29 02 80 5C C1 A9 
   701)       256.1  Rx         02D1  2  FF 01 
   702)       256.3  Rx         02E1  8  FC 1F 8A 19 97 84 09 00 
   703)       256.6  Rx         061D  8  01 00 36 4A 16 45 00 00 
   704)       256.9  Rx         07AA  8  0C 00 00 00 00 00 00 00 
   705)       257.1  Rx         0118  8  01 6E 32 00 00 48 00 00 
   706)       257.3  Rx         0238  8  20 27 48 C3 1F 00 F6 A1 
   707)       257.6  Rx         0266  8  00 00 01 20 00 00 9F 01 
   708)       257.7  Rx         0139  1  00 
   709)       257.9  Rx         01D8  8  29 00 00 00 00 00 00 02 
   710)       258.2  Rx         01E5  8  02 AC 00 00 00 00 00 94 
   711)       258.7  Rx         02D7  5  80 51 36 C3 0D 
   712)       258.9  Rx         0545  8  02 00 03 00 00 00 20 6F 
   713)       259.8  Rx         0263  8  04 00 00 00 B0 20 00 00 
   714)       260.1  Rx         02B3  8  0A 28 4A 00 00 00 00 02 
   715)       260.2  Rx         0132  6  1F 96 E4 FF 08 40 
   716)       260.5  Rx         0320  8  03 00 00 00 00 00 00 00 
   717)       260.7  Rx         0372  8  0A E0 53 06 01 00 00 AA 
   718)       261.0  Rx         0401  8  1E 2A 94 9C 97 9C 89 9C 
   719)       261.2  Rx         045A  8  FD 07 00 7F 02 00 51 00 
   720)       261.4  Rx         03AE  8  AB 40 00 08 00 00 D0 C4 
   721)       263.6  Rx         0129  8  24 2B B0 60 00 20 FF 3F 
   722)       263.9  Rx         0381  8  0D 00 00 00 00 00 00 00 
   723)       264.7  Rx         037A  8  C1 00 00 00 00 00 00 00 
   724)       264.9  Rx         04E2  8  06 00 00 00 00 00 00 00 
   725)       265.5  Rx         0211  6  A5 1A 70 07 00 01 
   726)       265.7  Rx         0225  4  55 55 FA 00 
   727)       265.9  Rx         0441  8  64 01 B6 C3 58 00 35 D4 
   728)       266.2  Rx         0118  8  02 6F 32 00 00 48 00 00 
   729)       266.4  Rx         0266  8  00 00 01 20 00 00 9F 01 
   730)       266.6  Rx         0257  8  68 40 1F 00 00 A0 0F 01 
   731)       266.9  Rx         0421  7  00 14 00 00 00 D0 48 
   732)       267.8  Rx         02C1  8  04 00 00 00 00 00 00 00 
   733)       268.1  Rx         01D8  8  29 00 00 00 00 00 20 22 
   734)       268.3  Rx         01E5  8  02 AC 00 00 00 00 20 B4 
   735)       268.5  Rx         0201  8  03 00 00 00 00 00 00 00 
   736)       268.8  Rx         02BF  7  00 00 00 00 00 00 01 
   737)       269.0  Rx         039D  5  47 5E 21 28 00 
   738)       269.7  Rx         0243  8  00 FC CF 0C 9B 44 0D 49 
   739)       270.0  Rx         02E1  8  05 00 00 00 00 30 26 00 
   740)       270.2  Rx         0132  6  1A 96 E6 FF FB 3F 
   741)       270.3  Rx         0666  4  00 00 A0 00 
   742)       270.6  Rx         055A  8  05 00 00 00 00 00 00 00 
   743)       270.8  Rx         0262  8  0B 00 D1 FA 00 F0 92 12 
   744)       271.1  Rx         0405  8  12 46 30 30 31 30 39 30 
   745)       271.6  Rx         0359  8  4C EB C8 E3 B2 9C 47 91 
   746)       271.9  Rx         0261  8  63 4C 0A 00 00 40 D5 FC 
   747)       272.0  Rx         0283  6  02 06 00 00 41 00 
   748)       272.6  Rx         023E  8  F4 01 3A A6 FA FC AF BA 
   749)       273.6  Rx         0129  8  E9 2C B0 60 01 20 FF 3F 
   750)       273.8  Rx         01FB  8  05 02 00 00 00 00 00 00 
   751)       274.1  Rx         07E8  8  14 05 00 A0 87 5F 98 00 
   752)       274.6  Rx         022A  4  00 00 19 18 
   753)       276.7  Rx         0552  8  00 00 00 00 00 00 F0 47 
   754)       277.0  Rx         0118  8  F3 60 32 00 00 48 00 00 
   755)       277.2  Rx         0266  8  00 00 01 20 00 00 9F 01 
   756)       277.8  Rx         03C0  8  04 00 00 00 00 00 00 00 
   757)       278.0  Rx         01D8  8  29 00 00 00 00 00 40 42 
   758)       278.3  Rx         01E5  8  02 AC 00 00 00 00 40 D4 
   759)       279.8  Rx         0263  8  E0 43 F6 6A A6 4F 5F 1F 
   760)       280.1  Rx         0132  6  1C 96 E6 FF F8 3F 
   761)       280.3  Rx         0401  8  1F 2A 8C 9C 86 9C 81 9C 
   762)       282.7  Rx         0422  6  72 06 04 00 00 00 
   763)       283.6  Rx         0129  8  56 2D B0 60 00 20 FF 3F 
   764)       283.8  Rx         0103  8  22 B3 88 04 C2 12 21 32 
   765)       284.0  Rx         0221  8  61 05 55 55 01 02 C0 F6 
   766)       284.3  Rx         02E1  8  66 00 08 00 BE FC CA 69 
   767)       285.7  Rx         039A  8  FD FD FD FD FD 01 00 02 
   768)       286.1  Rx         0118  8  F4 61 32 00 00 48 00 00 
   769)       286.4  Rx         0266  8  00 00 01 20 00 00 9F 01 
   770)       286.6  Rx         06A2  5  00 00 00 00 00 
   771)       286.8  Rx         0257  8  69 41 1F 00 00 A0 0F 01 
   772)       287.8  Rx         0261  8  CC 00 88 4B 00 40 E4 F1 
   773)       288.0  Rx         01D8  8  29 00 00 00 00 00 60 62 
   774)       288.3  Rx         01E5  8  02 AC 00 00 00 00 60 F4 
   775)       288.5  Rx         0212  8  59 04 00 00 81 FF 77 31 
   776)       288.7  Rx         0252  8  DD 1B E5 71 00 FC 0F 00 
   777)       289.0  Rx         0292  8  FB B6 BB 70 C2 01 00 00 
   778)       289.2  Rx         02C1  8  68 30 FE 00 50 8E 02 00 
   779)       289.5  Rx         02C2  8  20 40 C0 4B 01 00 40 CB 
   780)       289.7  Rx         02D2  8  58 2F B5 4E 09 07 9E 1E 
   781)       289.9  Rx         0123  8  01 00 00 00 00 3F 00 00 
   782)       290.2  Rx         0243  8  01 FC 42 47 41 00 66 66 
   783)       290.4  Rx         0132  6  19 96 E6 FF F5 3F 
   784)       290.6  Rx         0281  6  19 00 FF 1F 00 01 
   785)       290.7  Rx         02F2  2  12 02 
   786)       290.9  Rx         0312  8  B1 21 48 17 A8 11 02 00 
   787)       291.2  Rx         0392  8  01 11 A4 67 00 0A 03 00 
   788)       291.4  Rx         03A2  8  F2 A7 FF 7F 02 00 00 00 
   789)       291.5  Rx         0419  1  00 
   790)       291.8  Rx         031A  8  03 00 00 00 00 00 70 90 
   791)       292.0  Rx         0545  8  C0 02 53 90 99 96 39 57 
   792)       292.3  Rx         0677  8  02 00 00 00 00 00 00 00 
   793)       292.4  Rx         020E  2  11 01 
   794)       292.6  Rx         0712  8  05 02 0E 0C 00 00 00 00 
   795)       292.9  Rx         0201  8  00 3D 3C 1A 00 E4 FF 00 
   796)       293.6  Rx         0129  8  E0 2E B0 60 FF 1F FF 3F 
   797)       293.9  Rx         0719  8  16 00 00 00 00 00 00 00 
   798)       294.0  Rx         0229  3  41 05 00 
   799)       294.2  Rx         031E  8  03 00 00 00 00 00 00 00 
   800)       294.5  Rx         021D  8  04 00 35 00 00 00 00 00 
   801)       294.7  Rx         0249  4  AF 0E 00 00 
   802)       294.7  Rx         041D  1  14 
   803)       295.0  Rx         0330  8  12 4D 38 39 30 36 31 33 
   804)       295.3  Rx         054F  8  00 00 00 00 00 00 00 00 
   805)       295.5  Rx         025D  8  14 41 01 2A 04 F0 00 00 
   806)       295.8  Rx         03A3  8  14 D0 00 00 98 0B FC 01 
   807)       296.9  Rx         0118  8  F5 62 32 00 00 48 00 00 
   808)       297.1  Rx         0266  8  00 00 01 20 00 00 9F 01 
   809)       297.3  Rx         0409  1  E0 
   810)       297.8  Rx         01D8  8  29 00 00 00 00 00 80 82 
   811)       298.0  Rx         01E5  8  02 AC 00 00 00 00 00 94 
   812)       298.3  Rx         02E1  8  10 21 04 00 10 00 00 04 
   813)       298.8  Rx         03C8  8  05 00 00 00 00 00 00 00 
   814)       299.1  Rx         02E2  8  E7 13 50 3F 01 00 00 00 
   815)       299.3  Rx         03C2  8  29 55 00 00 00 00 00 00 
   816)       299.5  Rx         0207  8  00 02 0C 02 04 00 00 00 
   817)       299.8  Rx         02F9  8  B0 FB 07 18 00 00 00 00 
   818)       300.0  Rx         0263  8  E1 6B EE 62 A6 4F 5F 1F 
   819)       300.2  Rx         0132  6  21 96 E6 FF F4 3F 
   820)       300.4  Rx         03A1  8  08 4E 0C 8A 01 14 E2 A3 
   821)       300.7  Rx         0401  8  20 00 00 00 00 00 00 00 
   822)       300.8  Rx         0744  1  AA 
   823)       301.1  Rx         022B  8  FF FF FF FF FF FF FF FF 
   824)       301.3  Rx         0400  7  00 E0 FB BE EF FB 00 
   825)       301.6  Rx         038D  8  56 76 AA AA 6A 24 49 02 
   826)       301.8  Rx         0393  8  09 80 63 00 00 00 00 00 
   827)       302.0  Rx         0381  8  0E 00 00 00 00 E0 FF 00 
   828)       303.6  Rx         0129  8  78 2F B0 60 00 20 FF 3F 
   829)       303.8  Rx         0261  8  05 22 0B C8 9A 42 F0 F4 
   830)       304.0  Rx         0709  8  00 00 01 04 40 00 01 10 
   831)       304.3  Rx         03AE  8  AB 40 00 08 00 00 E0 D4 
   832)       304.6  Rx         03E8  8  04 00 00 00 00 00 00 00 
   833)       304.7  Rx         01FA  3  1A C0 01 
   834)       305.3  Rx         0234  8  29 90 02 F5 E8 03 80 B6 
   835)       305.6  Rx         01BB  1  02 
   836)       305.9  Rx         0284  8  30 00 00 00 40 08 B0 AE 
   837)       306.1  Rx         0118  8  F6 63 32 00 00 48 00 00 
   838)       306.4  Rx         0266  8  00 00 01 20 00 00 9F 01 
   839)       306.7  Rx         0257  8  6A 42 1F 00 00 A0 0F 01 
   840)       306.9  Rx         03F9  8  02 00 00 00 00 00 00 00 
   841)       307.1  Rx         0108  8  26 0D 00 02 00 01 00 0D 
   842)       307.3  Rx         0126  5  01 B0 1D 68 5D 
   843)       307.5  Rx         0128  4  80 00 E4 0A 
   844)       307.7  Rx         01D6  8  00 08 04 00 8A 46 10 05 
   845)       308.0  Rx         01D8  8  29 00 00 00 00 00 A0 A2 
   846)       308.2  Rx         0204  8  01 00 00 FF 00 00 00 00 
   847)       308.4  Rx         01E5  8  02 AC 00 00 00 00 20 B4 
   848)       308.7  Rx         020C  8  36 B8 39 1E 1A 01 30 0E 
   849)       308.9  Rx         0264  6  2D 00 00 00 E0 01 
   850)       309.1  Rx         0268  5  01 01 7B 01 AD 
   851)       309.3  Rx         02B4  6  36 05 06 0F 2F 01 
   852)       309.5  Rx         0279  8  AE DD 0C 01 00 06 62 02 
   853)       309.6  Rx         02B6  3  00 30 00 
   854)       309.9  Rx         0243  8  02 FC 53 0F 05 66 00 00 
   855)       310.1  Rx         02C1  8  21 6B 18 64 02 00 00 00 
   856)       310.3  Rx         0132  6  20 96 E5 FF F0 3F 
   857)       310.6  Rx         02C4  8  49 DA FD 2E AF CC E5 88 
   858)       310.8  Rx         0395  8  09 0F 0F 4C 35 36 07 7D 
   859)       311.0  Rx         0224  8  04 08 00 E0 E4 00 10 08 
   860)       311.2  Rx         0242  3  55 55 86 
   861)       311.4  Rx         0397  8  00 00 00 D8 1D 00 00 08 
   862)       311.6  Rx         039D  5  48 5F 21 28 00 
   863)       311.9  Rx         0340  8  08 00 00 00 00 00 00 00 
   864)       312.1  Rx         02E1  8  39 2D 00 FF 0F 00 00 00 
   865)       312.3  Rx         023E  8  F4 01 3A A6 FA FC BF CA 
   866)       312.5  Rx         0420  7  28 01 40 4B 00 00 04 
   867)       312.8  Rx         045A  8  C4 C6 45 C7 5F 21 47 42 
   868)       313.0  Rx         0788  8  C4 CC B1 63 00 00 82 00 
   869)       313.6  Rx         0129  8  9D 20 B0 60 00 20 FF 3F 
   870)       313.8  Rx         0339  8  01 E1 02 00 00 03 40 0C 
   871)       314.1  Rx         04E3  8  06 00 00 00 00 00 00 00 
   872)       314.3  Rx         07A8  8  02 40 C3 F7 4E 0F 00 00 
   873)       315.8  Rx         0441  8  3D 85 89 00 32 00 38 1E 
   874)       316.8  Rx         0360  8  03 00 00 00 00 00 00 00 
   875)       317.0  Rx         0118  8  F7 64 32 00 00 48 00 00 
   876)       317.2  Rx         07D5  8  2B 00 50 F9 00 00 00 00 
   877)       317.5  Rx         0266  8  00 00 01 20 00 00 9F 01 
   878)       317.7  Rx         07D5  8  2C 3F 3D 00 00 00 00 00 
   879)       318.0  Rx         01D8  8  29 00 00 00 00 00 C0 C2 
   880)       318.2  Rx         0201  8  59 28 98 00 00 00 00 00 
   881)       318.5  Rx         01E5  8  02 AC 00 00 00 00 40 D4 
   882)       318.7  Rx         07D5  8  32 00 00 00 00 00 00 00 
   883)       318.9  Rx         0288  8  03 11 00 40 80 0C 41 AB 
   884)       319.2  Rx         07D7  8  32 01 00 00 00 00 00 00 
   885)       319.4  Rx         0113  3  01 97 01 
   886)       319.5  Rx         07F4  1  01 
   887)       319.7  Rx         07FF  8  08 00 00 01 00 00 00 00 
   888)       320.0  Rx         0261  8  00 10 0F 00 FF 4F 00 9B 
   889)       320.1  Rx         0132  6  20 96 E6 FF F4 3F 
   890)       320.4  Rx         0232  8  8A 00 FA 09 FF FF 00 00 
   891)       320.6  Rx         0263  8  02 00 E0 C7 0F 3E 3E 41 
   892)       320.9  Rx         01F9  8  00 00 00 00 00 00 00 00 
   893)       321.1  Rx         02B3  8  0B 43 FE FE FF 01 A0 14 
   894)       321.3  Rx         0318  8  1A 03 0E 16 1E 2C 29 CF 
   895)       321.6  Rx         0343  8  00 91 40 0E 99 00 00 00 
   896)       321.8  Rx         0372  8  0B CE FF 00 00 2A 25 00 
   897)       322.1  Rx         03A2  8  60 05 F2 C8 04 80 C2 6F 
   898)       322.3  Rx         03AE  8  AB 40 00 08 00 00 F1 E5 
   899)       322.5  Rx         0401  8  21 00 00 00 00 00 00 00 
   900)       322.8  Rx         0102  8  22 B3 48 02 B8 42 A1 09 
   901)       323.0  Rx         0241  7  34 34 14 0D 0D 45 00 
   902)       323.2  Rx         0458  7  00 00 20 00 00 00 00 
   903)       323.6  Rx         0129  8  8A 21 B0 60 00 20 FF 3F 
   904)       323.8  Rx         01FB  8  00 00 00 00 00 00 00 00 
   905)       324.1  Rx         0228  8  03 11 00 40 80 0C 31 3B 
   906)       324.3  Rx         0287  8  38 39 37 39 00 03 00 02 
   907)       324.8  Rx         0545  8  01 00 00 00 00 10 40 9B 
   908)       325.8  Rx         02E1  8  02 00 00 00 FF 00 02 00 
   909)       326.0  Rx         03C3  8  55 55 55 01 00 00 00 00 
   910)       326.3  Rx         0118  8  F8 65 32 00 00 48 00 00 
   911)       326.5  Rx         0266  8  00 00 01 20 00 00 9F 01 
   912)       326.7  Rx         0257  8  6B 43 1F 00 00 A0 0F 01 
   913)       327.6  Rx         0119  4  00 00 00 00 
   914)       327.8  Rx         01D8  8  29 00 00 00 00 00 E0 E2 
   915)       328.1  Rx         02C1  8  02 19 06 00 00 D0 92 09 
   916)       328.3  Rx         01E5  8  02 AC 00 00 00 00 60 F4 
   917)       328.6  Rx         0677  8  03 00 00 00 00 00 00 00 
   918)       328.8  Rx         02A8  8  C2 11 00 00 06 80 A0 A3 
   919)       329.1  Rx         0122  8  01 00 00 00 00 3F 00 00 
   920)       329.7  Rx         0243  8  03 00 00 00 10 4E 09 00 
   921)       330.1  Rx         0132  6  1E 96 E5 FF F5 3F 
   922)       331.7  Rx         0553  8  00 00 00 00 00 00 F0 48 
   923)       333.6  Rx         0129  8  C3 22 B0 60 00 20 FF 3F 
   924)       333.8  Rx         0221  8  60 55 55 15 54 51 D1 B8 
   925)       334.0  Rx         02F1  8  10 96 03 D6 13 00 00 00 
   926)       334.3  Rx         02E8  8  C2 11 00 00 06 80 90 D3 
   927)       334.7  Rx         0439  8  00 00 00 00 00 18 02 01 
   928)       334.9  Rx         0272  8  06 00 02 C9 07 20 19 20 
   929)       335.3  Rx         025B  8  D3 C0 02 05 CA 8C D0 1B 
   930)       335.6  Rx         07AA  8  C0 E7 8E 3C 00 08 00 00 
   931)       335.9  Rx         0261  8  31 00 0A 00 8B 49 1A 57 
   932)       336.9  Rx         0118  8  F9 66 32 00 00 48 00 00 
   933)       337.2  Rx         0266  8  00 00 01 20 00 00 9F 01 
   934)       337.4  Rx         0247  8  2C 0F FF 0E 00 32 02 00 
   935)       337.6  Rx         0227  8  E7 03 19 00 41 00 00 81 
   936)       337.9  Rx         01D8  8  29 00 00 00 00 00 00 02 
   937)       338.1  Rx         0319  8  21 00 00 00 FF FF FF FF 
   938)       338.4  Rx         01E5  8  02 AC 00 00 00 00 00 94 
   939)       338.6  Rx         0383  8  A9 18 1E 00 3B B0 20 06 
   940)       338.8  Rx         0428  6  00 00 00 10 00 00 
   941)       339.8  Rx         0263  8  03 00 00 00 00 00 00 00 
   942)       340.0  Rx         02E1  8  03 6D 66 02 1B 97 00 00 
   943)       340.2  Rx         0132  6  1C 96 E5 FF F4 3F 
   944)       340.4  Rx         0381  8  EF FF FF CD 03 00 CF 0C 
   945)       340.7  Rx         0401  8  22 00 00 00 00 00 00 00 
   946)       340.9  Rx         0282  8  04 35 C2 08 C8 B4 02 24 
   947)       341.2  Rx         078A  8  01 00 06 00 02 00 00 00 
   948)       341.4  Rx         0310  8  12 02 55 25 24 26 04 63 
   949)       342.8  Rx         0201  8  02 00 00 00 00 00 00 00 
   950)       343.0  Rx         0682  8  00 00 00 40 04 04 F0 F5 
   951)       343.6  Rx         0129  8  D4 23 B0 60 00 20 FF 3F 
   952)       343.8  Rx         03DB  8  0B 38 0F 00 00 00 00 00 
   953)       344.0  Rx         0249  4  CE 0F 00 00 
   954)       344.2  Rx         0423  7  00 00 10 00 00 00 00 
   955)       344.5  Rx         043B  8  03 7F 00 FF 00 00 00 00 
   956)       344.7  Rx         0448  6  00 00 10 10 00 00 
   957)       344.9  Rx         03F5  8  00 00 C8 38 82 0C 00 00 
   958)       345.2  Rx         0719  8  17 00 00 00 00 00 00 00 
   959)       346.1  Rx         0118  8  FA 67 32 00 00 48 00 00 
   960)       346.4  Rx         0266  8  00 00 01 20 00 00 9F 01 
   961)       346.6  Rx         0257  8  6C 44 1F 00 00 A0 0F 01 
   962)       346.8  Rx         01F8  4  00 00 00 00 
   963)       347.8  Rx         02C1  8  B3 1A 98 00 00 00 00 00 
   964)       348.0  Rx         01D8  8  29 00 00 00 00 00 20 22 
   965)       348.3  Rx         039D  5  39 50 21 28 00 
   966)       348.5  Rx         01E5  8  02 AC 00 00 00 00 20 B4 
   967)       348.8  Rx         03E2  7  02 00 00 00 00 C0 00 
   968)       349.1  Rx         0307  8  00 00 00 00 00 00 00 3B 
   969)       349.3  Rx         03C2  8  00 55 55 55 00 00 65 05 
   970)       349.8  Rx         02C3  8  55 03 A8 06 00 00 12 A5 
   971)       350.0  Rx         0243  8  04 FC A3 F3 01 7D FF FF 
   972)       350.2  Rx         0132  6  1B 96 E5 FF F5 3F 
   973)       350.5  Rx         03A1  8  C1 FF FF DB 3D 00 F0 87 
   974)       350.7  Rx         0379  8  0A 00 00 00 04 00 0C 03 
   975)       351.2  Rx         022B  8  FF FF FF FF FF FF FF FF 
   976)       351.8  Rx         0261  8  8A 29 29 02 80 5C 21 09 
   977)       352.6  Rx         023E  8  F4 01 3A A6 FA FC CF DA 
   978)       352.9  Rx         0289  8  00 00 00 00 00 00 80 12 
   979)       353.6  Rx         0129  8  52 24 B0 60 00 20 FF 3F 
   980)       353.8  Rx         02E1  8  FC 1F 8B 19 97 85 09 00 
   981)       354.8  Rx         03A2  8  01 00 10 00 00 00 00 00 
   982)       355.0  Rx         0234  8  2E 19 03 40 37 00 94 F0 
   983)       355.7  Rx         0285  8  01 00 B1 01 09 00 38 00 
   984)       355.8  Rx         02D1  2  FF 01 
   985)       356.0  Rx         0286  5  EF F5 78 E9 37 
   986)       356.1  Rx         0743  1  22 
   987)       356.3  Rx         03D8  4  B9 00 B4 00 
   988)       356.5  Rx         0353  8  7B 0F 39 80 33 10 D8 D8 
   989)       356.7  Rx         0373  8  06 7B 58 00 00 1E 06 1F 
   990)       357.0  Rx         0118  8  FB 68 32 00 00 48 00 00 
   991)       357.2  Rx         0266  8  00 00 01 20 00 00 9F 01 
   992)       357.4  Rx         0355  6  80 0C 00 FF A8 80 
   993)       357.6  Rx         0139  1  00 
   994)       357.8  Rx         01D8  8  29 00 00 00 00 00 40 42 
   995)       358.0  Rx         01E5  8  02 AC 00 00 00 00 40 D4 
   996)       358.3  Rx         02E3  7  01 00 00 61 02 0B 00 
   997)       358.5  Rx         0545  8  02 00 04 00 00 00 50 A0 
   998)       358.7  Rx         02D7  5  80 51 36 C3 0D 
   999)       359.8  Rx         0263  8  04 00 00 00 B0 20 00 00 
  1000)       360.0  Rx         045A  8  FD 07 00 7F 02 00 51 00 
  1001)       360.2  Rx         0132  6  1F 96 E5 FF F6 3F 
  1002)       360.5  Rx         03AE  8  AB 40 00 08 00 00 01 F5 
  1003)       360.7  Rx         0401  8  23 00 00 00 00 00 00 00 
  1004)       363.6  Rx         0129  8  45 25 B0 60 00 20 FF 3F 
  1005)       364.6  Rx         037A  8  D2 00 00 00 00 00 00 00 
  1006)       364.9  Rx         04E2  8  00 04 00 00 00 00 28 00 
  1007)       365.4  Rx         0211  6  A6 1B 70 07 00 01 
  1008)       365.7  Rx         0225  4  55 55 FA 00 
  1009)       365.9  Rx         0441  8  65 01 B6 C3 58 00 3D DD 
  1010)       366.1  Rx         0118  8  FC 69 32 00 00 48 00 00 
  1011)       366.4  Rx         0266  8  00 00 01 20 00 00 9F 01 
  1012)       366.6  Rx         0257  8  6D 45 1F 00 00 A0 0F 01 
  1013)       366.9  Rx         0421  7  00 14 00 00 00 D0 48 
  1014)       367.8  Rx         02E1  8  05 00 00 00 00 30 26 00 
  1015)       368.1  Rx         01D8  8  29 00 00 00 00 00 60 62 
  1016)       368.3  Rx         01E5  8  02 AC 00 00 00 00 60 F4 
  1017)       368.6  Rx         0201  8  03 00 00 00 00 00 00 00 
  1018)       368.8  Rx         0261  8  63 4C 0A 00 00 40 35 5C 
  1019)       369.0  Rx         02C1  8  04 00 00 00 00 00 00 00 
  1020)       369.2  Rx         0443  6  7A 0F FF 03 00 00 
  1021)       369.5  Rx         0677  8  04 00 00 00 00 00 00 00 
  1022)       369.7  Rx         0718  7  04 00 00 00 00 00 00 
  1023)       370.0  Rx         0243  8  00 FC CF 0C 9B 44 0D 49 
  1024)       370.2  Rx         0132  6  1F 96 E4 FF F0 3F 
  1025)       370.8  Rx         0262  8  0B 00 D1 FA 00 F0 92 12 
  1026)       371.6  Rx         0359  8  4D 7B 48 AC 7E 1C 6D CC 
  1027)       371.8  Rx         0283  6  02 06 00 00 41 00 
  1028)       373.6  Rx         0129  8  F6 26 B0 60 FF 1F FF 3F 
  1029)       373.8  Rx         01FB  8  05 02 00 00 00 00 00 00 
  1030)       374.5  Rx         0345  8  0D 00 00 00 84 DB F2 D4 
  1031)       374.7  Rx         022A  4  00 00 19 18 
  1032)       376.8  Rx         0552  8  00 00 00 00 00 00 00 57 
  1033)       377.0  Rx         0118  8  FD 6A 32 00 00 48 00 00 
  1034)       377.2  Rx         0266  8  00 00 01 20 00 00 9F 01 
  1035)       377.8  Rx         03C0  8  05 00 00 00 00 00 00 00 
  1036)       378.0  Rx         01D8  8  29 00 00 00 00 00 80 82 
  1037)       378.2  Rx         01E5  8  02 AC 00 00 00 00 00 94 
  1038)       378.5  Rx         0381  8  30 00 00 00 00 00 00 00 
  1039)       379.8  Rx         0263  8  E0 43 F6 6A A6 4F 5F 1F 
  1040)       380.0  Rx         02B3  8  EC E8 48 D2 08 51 53 00 
  1041)       380.2  Rx         0132  6  1B 96 E5 FF F5 3F 
  1042)       380.4  Rx         0372  8  0C 00 00 FF 0F 00 00 00 
  1043)       381.8  Rx         02E1  8  66 00 08 00 BE FC CA 69 
  1044)       382.7  Rx         0422  6  72 06 04 00 00 00 
  1045)       383.6  Rx         0129  8  88 27 B0 60 00 20 FF 3F 
  1046)       383.8  Rx         0103  8  22 B3 88 04 C2 12 21 32 
  1047)       384.1  Rx         0221  8  61 05 55 55 01 02 E0 16 
  1048)       384.3  Rx         0261  8  CC 00 88 4B 00 40 44 51 
  1049)       385.7  Rx         039A  8  10 17 FF 9A FF FD FD 61 
  1050)       386.1  Rx         0118  8  FE 6B 32 00 00 48 00 00 
  1051)       386.4  Rx         0266  8  00 00 01 20 00 00 9F 01 
  1052)       386.6  Rx         0387  8  67 67 64 62 70 6A 00 40 
  1053)       386.8  Rx         0257  8  6E 46 1F 00 00 A0 0F 01 
  1054)       387.0  Rx         06A2  5  00 00 00 00 00 
  1055)       387.8  Rx         03A2  8  02 A8 FF 7F 02 00 00 00 
  1056)       388.0  Rx         01D8  8  29 00 00 00 00 00 A0 A2 
  1057)       388.3  Rx         01E5  8  02 AC 00 00 00 00 20 B4 
  1058)       388.5  Rx         0212  8  59 04 00 00 81 FF 77 31 
  1059)       388.7  Rx         0252  8  DD 1B E5 71 00 FC 0F 00 
  1060)       389.0  Rx         0292  8  FB B6 BB 70 C2 01 00 00 
  1061)       389.2  Rx         02C1  8  68 30 FE 00 50 8E 02 00 
  1062)       389.4  Rx         02C2  8  55 5B A9 06 00 00 12 A5 
  1063)       389.7  Rx         02D2  8  58 2F B5 4E 09 07 9E 1E 
  1064)       389.9  Rx         0123  8  00 00 12 12 D2 00 00 00 
  1065)       390.2  Rx         0243  8  01 FC 42 47 41 00 66 66 
  1066)       390.4  Rx         0132  6  20 96 E5 FF F6 3F 
  1067)       390.5  Rx         0281  6  19 00 FF 1F 00 01 
  1068)       390.7  Rx         02F2  2  12 02 
  1069)       390.9  Rx         039D  5  3A 51 21 28 00 
  1070)       391.1  Rx         03B2  8  0C 19 1F 71 C0 FC 47 00 
  1071)       391.2  Rx         0419  1  00 
  1072)       391.4  Rx         0545  8  10 03 58 90 99 96 69 DD 
  1073)       392.2  Rx         023E  8  F4 01 3A A6 FA FC DF EA 
  1074)       392.4  Rx         020E  2  12 02 
  1075)       392.8  Rx         0201  8  00 3E 3B 1A 00 E4 FF 00 
  1076)       393.6  Rx         0129  8  5F 28 B0 60 00 20 FF 3F 
  1077)       393.8  Rx         0719  8  00 01 0C 14 14 06 0D 00 
  1078)       394.0  Rx         0229  3  DD 06 00 
  1079)       394.2  Rx         037D  8  D2 FE D3 FE 01 F8 FF 3F 
  1080)       394.4  Rx         0249  4  9B 00 00 00 
  1081)       394.6  Rx         03DD  8  06 00 00 00 00 E0 01 00 
  1082)       394.7  Rx         041D  1  14 
  1083)       395.0  Rx         054F  8  00 00 00 00 00 00 00 00 
  1084)       395.2  Rx         021D  8  04 00 35 00 00 00 00 00 
  1085)       395.4  Rx         0409  1  E0 
  1086)       395.7  Rx         025D  8  14 41 01 2A 04 F0 00 00 
  1087)       395.9  Rx         02E1  8  10 21 04 00 10 00 00 04 
  1088)       396.2  Rx         03A3  8  12 D0 00 00 98 0B FC 01 
  1089)       396.4  Rx         075D  8  04 00 00 00 00 00 00 00 
  1090)       396.9  Rx         0118  8  FF 6C 32 00 00 48 00 00 
  1091)       397.2  Rx         0266  8  00 00 01 20 00 00 9F 01 
  1092)       397.8  Rx         01D8  8  29 00 00 00 00 00 C0 C2 
  1093)       398.0  Rx         01E5  8  02 AC 00 00 00 00 40 D4 
  1094)       398.8  Rx         03C8  8  06 00 00 00 00 00 00 00 
  1095)       399.0  Rx         0207  8  00 04 0E 02 05 00 00 00 
  1096)       399.3  Rx         03A8  8  00 FF 00 00 00 00 00 00 
  1097)       399.5  Rx         03C2  8  29 55 00 00 00 00 00 00 
  1098)       399.8  Rx         02F9  8  B0 FB 07 20 00 00 00 00 
  1099)       400.0  Rx         0261  8  05 22 0B C8 9A 42 50 54 
  1100)       400.2  Rx         0132  6  23 96 E5 FF F2 3F 
  1101)       400.4  Rx         022B  8  FF FF FF FF FF FF FF FF 
  1102)       400.7  Rx         0263  8  E1 6B EE 62 A6 4F 5F 1F 
  1103)       400.9  Rx         03A1  8  08 4E 0C 8A 01 14 02 C3 
  1104)       401.2  Rx         03AE  8  AB 40 00 08 00 00 11 05 
  1105)       401.4  Rx         0400  7  00 E0 FB BE EF FB 00 
  1106)       401.8  Rx         0393  8  06 00 04 C9 07 20 19 20 
  1107)       403.6  Rx         0129  8  0A 29 B0 60 00 20 FF 3F 
  1108)       404.1  Rx         03E8  8  05 00 00 00 00 00 00 00 
  1109)       404.7  Rx         01FA  3  1A C0 01 
  1110)       405.3  Rx         0234  8  29 90 02 F6 E8 03 A0 D7 
  1111)       405.9  Rx         0313  8  02 64 64 05 00 00 20 05 
  1112)       406.2  Rx         0118  8  00 6D 32 00 00 48 00 00 
  1113)       406.4  Rx         0266  8  00 00 01 20 00 00 9F 01 
  1114)       406.6  Rx         0257  8  6F 47 1F 00 00 A0 0F 01 
  1115)       406.9  Rx         02D3  8  05 01 54 02 10 13 08 4D 
  1116)       407.1  Rx         0108  8  24 0E 00 02 00 FF FF 0D 
  1117)       407.3  Rx         0285  8  02 D2 00 00 00 00 FB 00 
  1118)       407.5  Rx         0126  5  01 B0 1D 70 65 
  1119)       407.8  Rx         0204  8  01 00 00 FF 00 00 00 00 
  1120)       408.0  Rx         01D8  8  29 00 00 00 00 00 E0 E2 
  1121)       408.2  Rx         0128  4  80 00 E4 0A 
  1122)       408.4  Rx         01E5  8  02 AC 00 00 00 00 60 F4 
  1123)       408.7  Rx         01D6  8  00 08 04 00 8A 06 1D 05 
  1124)       408.9  Rx         020C  8  36 B8 39 1E 1A 01 30 0E 
  1125)       409.1  Rx         0264  6  2C 00 00 00 E0 01 
  1126)       409.3  Rx         0268  5  01 01 7B 01 AD 
  1127)       409.5  Rx         0279  8  AF DE 0C 01 00 06 62 02 
  1128)       409.8  Rx         0243  8  02 FC 2B 0F 05 66 00 00 
  1129)       410.0  Rx         02B4  6  3C 05 06 0F 2C 01 
  1130)       410.2  Rx         0132  6  18 96 E5 FF F4 3F 
  1131)       410.3  Rx         02B6  3  00 30 00 
  1132)       410.5  Rx         02C1  8  21 6B 18 64 02 00 00 00 
  1133)       410.8  Rx         02C4  8  2A 80 00 00 C7 90 06 00 
  1134)       410.9  Rx         0242  3  55 55 86 
  1135)       411.2  Rx         0224  8  04 08 00 00 E5 00 10 08 
  1136)       411.4  Rx         02E1  8  39 2D 00 FF 0F 00 00 00 
  1137)       411.7  Rx         0395  8  09 0F 10 4C 35 36 08 7D 
  1138)       411.9  Rx         0340  8  09 00 00 00 00 00 00 00 
  1139)       412.2  Rx         0397  8  00 00 00 D8 1D 00 00 08 
  1140)       412.4  Rx         03F9  8  03 00 00 00 00 00 00 00 
  1141)       412.6  Rx         0420  7  28 01 40 4B 00 80 04 
  1142)       412.9  Rx         045A  8  C4 C6 45 C7 5F 21 47 42 
  1143)       413.1  Rx         0677  8  00 00 00 00 00 00 00 00 
  1144)       413.3  Rx         0788  8  01 00 00 00 FF A1 F8 12 
  1145)       413.6  Rx         0129  8  D5 2A B0 60 00 20 FF 3F 
  1146)       413.8  Rx         0339  8  01 E1 02 00 00 03 40 0C 
  1147)       414.0  Rx         04E3  8  00 A9 02 00 00 00 28 00 
  1148)       414.3  Rx         07A8  8  C0 CC B1 63 00 00 82 00 
  1149)       415.8  Rx         0261  8  00 10 0F 00 FF 4F 60 FB 
  1150)       416.1  Rx         0381  8  11 00 00 00 00 00 00 00 
  1151)       416.3  Rx         0441  8  3D 85 89 00 32 00 00 E6 
  1152)       416.5  Rx         07AA  8  01 0B 0F 04 0F 02 00 00 
  1153)       416.8  Rx         0360  8  04 00 00 00 00 00 00 00 
  1154)       417.0  Rx         0118  8  01 6E 32 00 00 48 00 00 
  1155)       417.3  Rx         07D5  8  2B 00 50 F9 00 00 00 00 
  1156)       417.5  Rx         0266  8  00 00 01 20 00 00 9F 01 
  1157)       417.8  Rx         07D5  8  2C 3F 3D 00 00 00 00 00 
  1158)       418.0  Rx         01D8  8  29 00 00 00 00 00 00 02 
  1159)       418.3  Rx         0201  8  59 28 98 00 00 00 00 00 
  1160)       418.5  Rx         01E5  8  02 AC 00 00 00 00 00 94 
  1161)       418.7  Rx         07D5  8  32 00 00 00 00 00 00 00 
  1162)       419.0  Rx         0288  8  03 11 00 40 80 0C 51 BB 
  1163)       419.2  Rx         07D7  8  32 01 00 00 00 00 00 00 
  1164)       419.4  Rx         0113  3  01 97 01 
  1165)       419.5  Rx         07F4  1  01 
  1166)       419.8  Rx         07FF  8  09 EF 00 00 00 00 00 00 
  1167)       420.0  Rx         0263  8  02 00 E0 C7 0F 3E 3E 41 
  1168)       420.2  Rx         0132  6  1D 96 E6 FF F5 3F 
  1169)       420.4  Rx         0318  8  1A 03 0E 16 1E 2C 2B D1 
  1170)       420.7  Rx         0343  8  00 91 40 FE 96 00 00 00 
  1171)       420.9  Rx         01F9  8  00 00 00 00 00 00 00 00 
  1172)       421.1  Rx         03A2  8  60 65 72 B9 04 80 C2 6F 
  1173)       421.3  Rx         0458  7  00 00 20 00 00 00 00 
  1174)       422.8  Rx         0102  8  22 B3 48 02 B8 42 A1 09 
  1175)       423.0  Rx         0241  7  34 34 14 0D 0D 45 00 
  1176)       423.5  Rx         0287  8  38 39 37 39 00 03 01 02 
  1177)       423.7  Rx         0129  8  24 2B B0 60 00 20 FF 3F 
  1178)       423.9  Rx         01FB  8  00 00 00 00 00 00 00 00 
  1179)       424.2  Rx         0228  8  03 11 00 40 80 0C 41 4B 
  1180)       424.5  Rx         02E1  8  02 00 00 00 FF 00 02 00 
  1181)       424.7  Rx         0545  8  01 00 00 00 00 10 70 CB 
  1182)       425.7  Rx         03C3  8  00 00 00 00 00 51 00 00 
  1183)       426.0  Rx         03E3  4  00 00 00 00 
  1184)       426.2  Rx         0118  8  02 6F 32 00 00 48 00 00 
  1185)       426.4  Rx         0266  8  00 00 01 20 00 00 9F 01 
  1186)       426.7  Rx         0257  8  70 48 1F 00 00 A0 0F 01 
  1187)       427.6  Rx         0119  4  00 00 00 00 
  1188)       427.8  Rx         02C1  8  02 19 06 00 00 D0 92 09 
  1189)       428.1  Rx         01D8  8  29 00 00 00 00 00 20 22 
  1190)       428.3  Rx         039D  5  3B 52 21 28 00 
  1191)       428.5  Rx         01E5  8  02 AC 00 00 00 00 20 B4 
  1192)       428.8  Rx         02A8  8  C2 11 00 00 06 80 B0 B3 
  1193)       429.0  Rx         0122  8  00 00 12 12 D2 00 00 00 
  1194)       429.8  Rx         0243  8  03 00 00 00 10 4E 09 00 
  1195)       430.1  Rx         0132  6  22 96 E5 FF ED 3F 
  1196)       431.8  Rx         0553  8  00 00 00 00 00 00 00 58 
  1197)       432.0  Rx         0261  8  31 00 D7 FF 8B 49 7A 83 
  1198)       432.3  Rx         023E  8  F4 01 3A A6 FA FC EF FA 
  1199)       433.6  Rx         0129  8  E9 2C B0 60 01 20 FF 3F 
  1200)       433.8  Rx         0221  8  60 55 55 15 54 51 F1 D8 
  1201)       434.0  Rx         02F1  8  11 54 00 4B 00 50 0C 00 
  1202)       434.3  Rx         02E8  8  C2 11 00 00 06 80 A0 E3 
  1203)       434.7  Rx         0439  8  00 00 00 00 00 18 02 01 
  1204)       434.9  Rx         0272  8  09 80 63 00 00 00 00 00 
  1205)       436.4  Rx         025B  8  D3 C0 02 05 CA 8C E0 2B 
  1206)       436.9  Rx         0118  8  F3 60 32 00 00 48 00 00 
  1207)       437.1  Rx         0266  8  00 00 01 20 00 00 9F 01 
  1208)       437.4  Rx         0227  8  E7 03 19 00 41 00 00 81 
  1209)       437.6  Rx         0247  8  2C 0F FF 0F 00 2F 02 00 
  1210)       437.9  Rx         01D8  8  29 00 00 00 00 00 40 42 
  1211)       438.1  Rx         01E5  8  02 AC 00 00 00 00 40 D4 
  1212)       438.3  Rx         02E1  8  03 6D 66 02 1B 98 00 00 
  1213)       438.6  Rx         0383  8  A9 18 1E 00 3B B0 20 06 
  1214)       438.8  Rx         0428  6  00 00 00 10 00 00 
  1215)       439.8  Rx         0263  8  03 00 00 00 00 00 00 00 
  1216)       440.0  Rx         02B3  8  0D 05 A0 94 06 72 63 01 
  1217)       440.2  Rx         0132  6  29 96 E5 FF F4 3F 
  1218)       440.4  Rx         0372  8  0D 32 00 0C 30 40 00 00 
  1219)       440.7  Rx         06E8  8  01 00 00 00 00 00 00 00 
  1220)       440.9  Rx         0282  8  04 35 C2 08 C8 B4 02 24 
  1221)       441.0  Rx         024A  1  03 
  1222)       441.3  Rx         03AA  8  00 00 00 00 00 00 00 00 
  1223)       441.5  Rx         03AE  8  AB 40 00 08 00 00 21 15 
  1224)       441.8  Rx         0682  8  00 00 00 40 04 04 00 05 
  1225)       442.0  Rx         077A  8  00 1B F3 FF 78 10 6F 05 
  1226)       442.3  Rx         078A  8  01 00 00 00 1E 13 1D 0D 
  1227)       442.8  Rx         0201  8  02 00 00 00 00 00 00 00 
  1228)       443.6  Rx         0129  8  56 2D B0 60 00 20 FF 3F 
  1229)       443.8  Rx         0423  7  00 00 10 00 00 00 00 
  1230)       444.0  Rx         0249  4  E8 01 00 00 
  1231)       444.2  Rx         0448  6  00 00 10 10 00 00 
  1232)       444.4  Rx         0719  8  01 00 00 00 00 00 00 00 
  1233)       444.9  Rx         03F5  8  00 00 C8 38 82 0C 00 00 
  1234)       446.1  Rx         0118  8  F4 61 32 00 00 48 00 00 
  1235)       446.3  Rx         0266  8  00 00 01 20 00 00 9F 01 
  1236)       446.6  Rx         0257  8  71 49 1F 00 00 A0 0F 01 
  1237)       446.8  Rx         01F8  4  00 00 00 00 
  1238)       447.8  Rx         0261  8  8A 29 29 02 80 5C 81 69 
  1239)       448.1  Rx         01D8  8  29 00 00 00 00 00 60 62 
  1240)       448.3  Rx         01E5  8  02 AC 00 00 00 00 60 F4 
  1241)       448.6  Rx         02C1  8  B3 1A 98 00 00 00 00 00 
  1242)       448.8  Rx         0677  8  01 00 00 00 00 00 00 00 
  1243)       449.0  Rx         03C2  8  00 55 55 55 00 00 65 05 
  1244)       449.3  Rx         040A  8  00 10 00 00 00 00 80 9E 
  1245)       449.8  Rx         02C3  8  00 00 00 4C 01 00 80 CB 
  1246)       450.0  Rx         0243  8  04 FC A3 F3 FD 7C FF FF 
  1247)       450.2  Rx         0132  6  17 96 E5 FF F4 3F 
  1248)       450.4  Rx         022B  8  FF FF FF FF FF FF FF FF 
  1249)       450.7  Rx         0379  8  0B 00 00 00 00 00 12 09 
  1250)       450.9  Rx         03A1  8  C1 FF FF C7 3D 00 10 93 
  1251)       451.8  Rx         02E1  8  FC 1F 8B 19 97 85 09 00 
  1252)       452.8  Rx         0289  8  00 00 00 00 00 00 80 12 
  1253)       453.6  Rx         0129  8  89 2E B0 60 00 20 FF 3F 
  1254)       453.8  Rx         0381  8  B2 00 00 00 00 00 96 00 
  1255)       454.1  Rx         03A2  8  01 00 10 00 00 00 00 00 
  1256)       455.3  Rx         0234  8  2E 19 03 40 37 00 B4 10 
  1257)       455.7  Rx         02D1  2  FF 01 
  1258)       456.7  Rx         03DF  8  00 00 80 00 01 D0 02 0B 
  1259)       456.9  Rx         0118  8  F5 62 32 00 00 48 00 00 
  1260)       457.1  Rx         0293  8  02 2C 55 90 15 14 6F 40 
  1261)       457.4  Rx         0266  8  00 00 01 20 00 00 9F 01 
  1262)       457.6  Rx         0253  8  00 61 4F 3F 64 00 2A 04 
  1263)       457.7  Rx         0139  1  00 
  1264)       458.0  Rx         01D8  8  29 00 00 00 00 00 80 82 
  1265)       458.2  Rx         0285  8  03 5B A1 61 8A 00 00 00 
  1266)       458.5  Rx         01E5  8  02 AC 00 00 00 00 00 94 
  1267)       458.7  Rx         0545  8  02 00 04 00 00 00 80 D0 
  1268)       458.9  Rx         02D7  5  80 51 36 C3 0D 
  1269)       459.8  Rx         0263  8  04 00 00 00 B0 20 00 00 
  1270)       460.0  Rx         045A  8  FD 07 00 7F 02 00 51 00 
  1271)       460.2  Rx         0132  6  27 96 E5 FF EF 3F 
  1272)       460.5  Rx         0320  8  04 00 00 00 00 00 00 00 
  1273)       463.6  Rx         0129  8  78 2F B0 60 00 20 FF 3F 
  1274)       463.8  Rx         0261  8  63 4C 0A 00 00 40 95 BC 
  1275)       464.7  Rx         037A  8  7B 00 00 00 00 00 00 00 
  1276)       464.9  Rx         04E2  8  01 E8 06 04 00 00 28 00 
  1277)       465.7  Rx         0225  4  55 55 FA 00 
  1278)       465.9  Rx         02E1  8  05 00 00 00 00 30 26 00 
  1279)       466.2  Rx         0118  8  F6 63 32 00 00 48 00 00 
  1280)       466.4  Rx         0211  6  A7 1C 70 07 00 01 
  1281)       466.6  Rx         0266  8  00 00 01 20 00 00 9F 01 
  1282)       466.9  Rx         0257  8  72 4A 1F 00 00 A0 0F 01 
  1283)       467.1  Rx         0421  7  00 14 00 00 00 D0 48 
  1284)       467.3  Rx         0441  8  64 01 B6 C3 58 00 05 A4 
  1285)       467.8  Rx         0361  5  29 0C 17 02 00 
  1286)       468.0  Rx         01D8  8  29 00 00 00 00 00 A0 A2 
  1287)       468.2  Rx         01E5  8  02 AC 00 00 00 00 20 B4 
  1288)       468.5  Rx         0201  8  03 00 00 00 00 00 00 00 
  1289)       468.8  Rx         02BF  7  00 00 00 00 00 00 01 
  1290)       469.0  Rx         02C1  8  04 00 00 00 00 00 00 00 
  1291)       469.2  Rx         039D  5  3C 53 21 28 00 
  1292)       469.7  Rx         0243  8  00 FC CF 0C 9B 44 0D 49 
  1293)       470.1  Rx         0132  6  24 96 E4 FF ED 3F 
  1294)       470.8  Rx         0262  8  0B 00 D1 FA 00 F0 92 12 
  1295)       471.7  Rx         0359  8  80 3F 00 00 00 00 00 00 
  1296)       471.9  Rx         0283  6  02 06 00 00 41 00 
  1297)       472.2  Rx         023E  8  F4 01 3A A6 FA FC FF 0A 
  1298)       473.6  Rx         0129  8  9D 20 B0 60 00 20 FF 3F 
  1299)       473.8  Rx         01FB  8  05 02 00 00 00 00 00 00 
  1300)       474.7  Rx         022A  4  00 00 19 18 
  1301)       476.8  Rx         0552  8  00 00 00 00 00 00 10 67 
  1302)       477.0  Rx         0118  8  F7 64 32 00 00 48 00 00 
  1303)       477.2  Rx         0266  8  00 00 01 20 00 00 9F 01 
  1304)       477.8  Rx         03C0  8  16 00 00 00 00 00 00 00 
  1305)       478.0  Rx         01D8  8  29 00 00 00 00 00 C0 C2 
  1306)       478.3  Rx         01E5  8  02 AC 00 00 00 00 40 D4 
  1307)       479.8  Rx         0263  8  E0 43 F6 6A A6 4F 5F 1F 
  1308)       480.0  Rx         0261  8  CC 00 88 4B 00 40 A4 B1 
  1309)       480.2  Rx         0132  6  17 96 E4 FF F4 3F 
  1310)       480.4  Rx         02E1  8  66 00 08 00 BE FC CA 69 
  1311)       480.7  Rx         03AE  8  AB 40 00 08 00 00 31 25 
  1312)       482.5  Rx         03CC  8  03 11 C3 18 00 38 24 00 
  1313)       482.7  Rx         0422  6  72 06 04 00 00 00 
  1314)       483.6  Rx         0129  8  8A 21 B0 60 00 20 FF 3F 
  1315)       483.8  Rx         0103  8  22 B3 88 04 C2 12 21 32 
  1316)       484.0  Rx         0221  8  61 05 55 55 01 02 00 36 
  1317)       485.7  Rx         039A  8  FD FD FD FD FD 01 00 02 
  1318)       485.9  Rx         03C9  8  02 1C 21 B4 56 00 00 00 
  1319)       486.2  Rx         0118  8  F8 65 32 00 00 48 00 00 
  1320)       486.4  Rx         07AA  8  22 08 85 F7 89 06 22 00 
  1321)       486.6  Rx         0266  8  00 00 01 20 00 00 9F 01 
  1322)       486.9  Rx         03A2  8  02 A8 FF 7F 02 00 00 00 
  1323)       487.1  Rx         0257  8  73 4B 1F 00 00 A0 0F 01 
  1324)       487.3  Rx         06A2  5  00 00 00 00 00 
  1325)       487.8  Rx         01D8  8  29 00 00 00 00 00 E0 E2 
  1326)       488.1  Rx         01E5  8  02 AC 00 00 00 00 60 F4 
  1327)       488.3  Rx         0212  8  59 04 00 00 81 FF 77 31 
  1328)       488.5  Rx         0252  8  DD 1B E4 71 00 FC 0F 00 
  1329)       488.8  Rx         0292  8  FB B6 BB 70 C2 01 00 00 
  1330)       489.0  Rx         02C1  8  68 30 FE 00 50 8E 02 00 
  1331)       489.3  Rx         02C2  8  20 40 C0 4B 01 00 40 CB 
  1332)       489.5  Rx         02D2  8  58 2F B5 4E 09 07 9E 1E 
  1333)       489.6  Rx         02F2  2  12 02 
  1334)       489.9  Rx         0123  8  01 00 00 00 00 3F 00 00 
  1335)       490.1  Rx         0243  8  01 FC 42 47 41 00 66 66 
  1336)       490.3  Rx         0132  6  1F 96 E3 FF EC 3F 
  1337)       490.5  Rx         0281  6  19 00 FF 1F 00 01 
  1338)       490.8  Rx         0545  8  10 03 53 E0 99 9A 99 5C 
  1339)       490.9  Rx         0419  1  00 
  1340)       491.1  Rx         0677  8  02 00 00 00 00 00 00 00 
  1341)       491.8  Rx         031A  8  03 00 00 00 00 00 80 A0 
  1342)       492.0  Rx         0381  8  13 00 00 00 00 23 FC FF 
  1343)       492.2  Rx         020E  2  13 03 
  1344)       492.8  Rx         0201  8  00 3E 3B 19 00 E4 FF 00 
  1345)       493.6  Rx         0129  8  C3 22 B0 60 00 20 FF 3F 
  1346)       493.8  Rx         02E1  8  10 21 04 00 10 00 00 04 
  1347)       494.0  Rx         0229  3  F9 07 00 
  1348)       494.2  Rx         021D  8  04 00 35 00 00 00 00 00 
  1349)       494.4  Rx         0249  4  2A 02 00 00 
  1350)       494.6  Rx         025D  8  14 41 01 2A 04 F0 00 00 
  1351)       494.7  Rx         041D  1  14 
  1352)       495.0  Rx         054F  8  00 00 00 00 00 00 00 00 
  1353)       495.2  Rx         0719  8  EE C3 00 00 61 00 00 14 
  1354)       495.8  Rx         03A3  8  12 D0 00 00 98 0B FC 01 
  1355)       496.0  Rx         0261  8  05 22 0B C8 9A 42 B0 B4 
  1356)       496.6  Rx         0409  1  E0 
  1357)       496.9  Rx         0118  8  F9 66 32 00 00 48 00 00 
  1358)       497.1  Rx         0266  8  00 00 01 20 00 00 9F 01 
  1359)       497.8  Rx         01D8  8  29 00 00 00 00 00 00 02 
  1360)       498.0  Rx         01E5  8  02 AC 00 00 00 00 00 94 
  1361)       498.5  Rx         0207  8  00 04 0E 02 05 00 00 00 
  1362)       498.8  Rx         03C8  8  00 00 00 00 00 00 00 00 
  1363)       499.0  Rx         02E2  8  10 00 00 6D 02 0B 00 00 
  1364)       499.2  Rx         0382  5  37 15 20 00 00 
  1365)       499.5  Rx         03C2  8  29 55 00 00 00 00 00 00 
  1366)       499.7  Rx         02F9  8  B0 FB 07 28 00 00 00 00 
  1367)       499.9  Rx         0263  8  E1 6B EE 62 A6 4F 5F 1F 
  1368)       500.2  Rx         0132  6  23 96 E4 FF F0 3F 
  1369)       500.4  Rx         02B3  8  CE 2B 5E 01 00 5C 64 00 
  1370)       500.6  Rx         0372  8  0E 00 00 0C 06 8C 00 00 
  1371)       500.8  Rx         03A1  8  08 4E 0C 8A 01 14 22 E3 
  1372)       501.1  Rx         022B  8  FF FF FF FF FF FF FF FF 
  1373)       501.3  Rx         0400  7  00 E0 FB BE EF FB 00 
  1374)       501.8  Rx         0393  8  09 80 63 00 00 00 00 00 
  1375)       503.6  Rx         0129  8  D4 23 B0 60 00 20 FF 3F 
  1376)       504.1  Rx         03E8  8  06 00 00 00 00 00 00 00 
  1377)       504.7  Rx         01FA  3  1A C0 01 
  1378)       505.1  Rx         03E9  8  F0 08 00 00 00 00 50 34 
  1379)       505.5  Rx         0234  8  29 90 02 F6 E8 03 C0 F7 
  1380)       505.7  Rx         04F3  4  00 00 00 00 
  1381)       505.8  Rx         0213  2  88 9D 
  1382)       506.1  Rx         0082  8  00 7F FF 80 FF 03 00 80 
  1383)       506.3  Rx         0118  8  FA 67 32 00 00 48 00 00 
  1384)       506.6  Rx         0266  8  00 00 01 20 00 00 9F 01 
  1385)       506.8  Rx         03F9  8  04 00 00 00 00 00 00 00 
  1386)       507.0  Rx         0257  8  74 4C 1F 00 00 A0 0F 01 
  1387)       507.3  Rx         0108  8  27 0F 00 02 00 00 00 0D 
  1388)       507.5  Rx         0126  5  01 B0 1D 78 6D 
  1389)       507.7  Rx         0204  8  01 00 00 FF 00 00 00 00 
  1390)       508.0  Rx         01D8  8  29 00 00 00 00 00 20 22 
  1391)       508.1  Rx         0128  4  80 00 E4 0A 
  1392)       508.4  Rx         01E5  8  02 AC 00 00 00 00 20 B4 
  1393)       508.6  Rx         01D6  8  00 08 04 00 8A 86 08 05 
  1394)       508.9  Rx         020C  8  36 B8 39 1E 1A 01 30 0E 
  1395)       509.1  Rx         0253  8  01 61 4F 3F 64 00 2A 04 
  1396)       509.3  Rx         0264  6  2C 00 00 00 E0 01 
  1397)       509.5  Rx         0268  5  01 01 7B 01 AD 
  1398)       509.7  Rx         0279  8  B0 DF 0C 01 00 06 62 02 
  1399)       509.9  Rx         0243  8  02 FC 2B 0F 05 66 00 00 
  1400)       510.1  Rx         0132  6  1B 96 E4 FF F2 3F 
  1401)       510.4  Rx         0285  8  04 00 00 00 00 00 00 00 
  1402)       510.6  Rx         02B4  6  3E 05 06 0F 31 01 
  1403)       510.7  Rx         0242  3  55 55 86 
  1404)       510.9  Rx         02B6  3  00 30 00 
  1405)       511.1  Rx         02C1  8  21 6B 18 64 02 00 00 00 
  1406)       511.4  Rx         02C4  8  4B C0 00 80 14 8F 06 00 
  1407)       511.6  Rx         02E1  8  39 2D 00 FF 0F 00 00 00 
  1408)       511.8  Rx         0224  8  04 08 00 00 E5 00 10 08 
  1409)       512.1  Rx         0261  8  00 10 0F 00 FF 4F C0 5B 
  1410)       512.3  Rx         0340  8  0A 00 00 00 00 00 00 00 
  1411)       512.6  Rx         0395  8  09 0F 10 4C 35 36 08 7D 
  1412)       512.8  Rx         023E  8  F4 01 3A A6 FA FC 0F 1A 
  1413)       513.0  Rx         0397  8  00 00 00 D8 1D 00 00 08 
  1414)       513.2  Rx         039D  5  3D 54 21 28 00 
  1415)       513.4  Rx         0420  7  28 01 40 4B 00 00 05 
  1416)       513.7  Rx         0129  8  52 24 B0 60 00 20 FF 3F 
  1417)       513.9  Rx         0339  8  01 E1 02 00 00 03 40 0C 
  1418)       514.2  Rx         045A  8  C4 C6 45 C7 5F 21 47 42 
  1419)       514.4  Rx         04E3  8  01 F3 04 00 00 00 28 00 
  1420)       514.6  Rx         0788  8  02 40 C6 47 4E 03 00 00 
  1421)       514.9  Rx         07A8  8  01 00 00 00 FF A1 E8 12 
  1422)       515.8  Rx         0441  8  3D 85 89 00 32 00 08 EE 
  1423)       516.8  Rx         0360  8  05 00 00 00 00 00 00 00 
  1424)       517.0  Rx         0118  8  FB 68 32 00 00 48 00 00 
  1425)       517.3  Rx         07D5  8  2B 00 50 F9 00 00 00 00 
  1426)       517.5  Rx         0266  8  00 00 01 20 00 00 9F 01 
  1427)       517.8  Rx         07D5  8  2C 3F 3D 00 00 00 00 00 
  1428)       518.0  Rx         01D8  8  29 00 00 00 00 00 40 42 
  1429)       518.2  Rx         0201  8  59 28 98 00 00 00 00 00 
  1430)       518.5  Rx         01E5  8  02 AC 00 00 00 00 40 D4 
  1431)       518.8  Rx         07D5  8  32 00 00 00 00 00 00 00 
  1432)       519.0  Rx         0288  8  03 11 00 40 80 0C 61 CB 
  1433)       519.2  Rx         07D7  8  32 01 00 00 00 00 00 00 
  1434)       519.4  Rx         0113  3  01 97 01 
  1435)       519.5  Rx         07F4  1  01 
  1436)       519.7  Rx         07FF  8  01 41 53 55 04 04 15 00 
  1437)       520.0  Rx         0263  8  02 00 E0 C7 0F 3E 3E 41 
  1438)       520.2  Rx         0132  6  14 96 E4 FF EC 3F 
  1439)       520.4  Rx         0318  8  1A 03 0F 16 1E 2C 2D D4 
  1440)       520.6  Rx         0343  8  00 91 58 9E 98 00 00 00 
  1441)       520.9  Rx         01F9  8  00 00 00 00 00 00 00 00 
  1442)       521.1  Rx         03A2  8  60 05 F2 BB 04 80 C2 6F 
  1443)       521.4  Rx         0458  7  00 00 20 00 00 00 00 
  1444)       521.6  Rx         03AE  8  AB 40 00 08 00 00 41 35 
  1445)       521.8  Rx         02E1  8  02 00 00 00 FF 00 02 00 
  1446)       522.0  Rx         052F  8  00 06 4E 45 97 19 6D C0 
  1447)       522.3  Rx         0348  8  16 00 00 05 08 07 00 10 
  1448)       522.5  Rx         0528  4  69 CA FC BF 
  1449)       522.6  Rx         03ED  1  00 
  1450)       522.8  Rx         0102  8  22 B3 48 02 B8 42 A1 09 
  1451)       523.0  Rx         0241  7  34 34 14 0D 0D 45 00 
  1452)       523.3  Rx         0545  8  01 00 00 00 00 10 A0 FB 
  1453)       523.5  Rx         0666  4  00 00 A0 00 
  1454)       523.7  Rx         0129  8  45 25 B0 60 00 20 FF 3F 
  1455)       523.9  Rx         01FB  8  00 00 00 00 00 00 00 00 
  1456)       524.2  Rx         0228  8  03 11 00 40 80 0C 51 5B 
  1457)       524.4  Rx         0287  8  38 39 37 39 00 03 01 02 
  1458)       524.6  Rx         055A  8  01 00 00 00 00 00 00 00 
  1459)       524.9  Rx         0405  8  10 00 00 00 00 35 59 4A 
  1460)       525.8  Rx         03C3  8  55 55 55 01 00 00 00 00 
  1461)       526.0  Rx         0323  5  3B 14 1F 02 04 
  1462)       526.2  Rx         0118  8  FC 69 32 00 00 48 00 00 
  1463)       526.5  Rx         0266  8  00 00 01 20 00 00 9F 01 
  1464)       526.7  Rx         0257  8  75 4D 1F 00 00 A0 0F 01 
  1465)       527.6  Rx         0119  4  00 00 00 00 
  1466)       527.8  Rx         01D8  8  29 00 00 00 00 00 60 62 
  1467)       528.1  Rx         01E5  8  02 AC 00 00 00 00 60 F4 
  1468)       528.3  Rx         0261  8  31 00 B8 FF 8B 49 DA C4 
  1469)       528.5  Rx         02C1  8  02 19 06 00 00 D0 92 09 
  1470)       528.8  Rx         0677  8  03 00 00 00 00 00 00 00 
  1471)       529.0  Rx         0122  8  01 00 00 00 00 3F 00 00 
  1472)       529.3  Rx         02A8  8  C2 11 00 00 06 80 C0 C3 
  1473)       529.8  Rx         0243  8  03 00 00 00 10 4E 09 00 
  1474)       530.0  Rx         0381  8  54 00 00 00 00 00 00 00 
  1475)       530.2  Rx         0132  6  12 96 E4 FF EF 3F 
  1476)       531.8  Rx         0553  8  00 00 00 00 00 00 10 68 
  1477)       533.6  Rx         0129  8  F6 26 B0 60 FF 1F FF 3F 
  1478)       533.8  Rx         02F1  8  32 11 00 00 00 01 00 00 
  1479)       534.0  Rx         0221  8  60 55 55 15 54 51 11 F8 
  1480)       534.3  Rx         02E8  8  C2 11 00 00 06 80 B0 F3 
  1481)       534.7  Rx         0439  8  00 00 00 00 00 18 02 01 
  1482)       534.9  Rx         0272  8  06 00 01 D9 07 20 19 20 
  1483)       535.3  Rx         025B  8  D3 C0 02 05 CA 8C F0 3B 
  1484)       535.8  Rx         02E1  8  03 6D 66 02 1B 98 00 00 
  1485)       536.9  Rx         0118  8  FD 6A 32 00 00 48 00 00 
  1486)       537.2  Rx         0266  8  00 00 01 20 00 00 9F 01 
  1487)       537.4  Rx         0227  8  E9 03 19 00 41 00 00 81 
  1488)       537.7  Rx         0247  8  2D 0F FF 0F 00 31 02 00 
  1489)       537.9  Rx         01D8  8  29 00 00 00 00 00 80 82 
  1490)       538.1  Rx         01E5  8  02 AC 00 00 00 00 00 94 
  1491)       538.4  Rx         0383  8  A9 18 1E 00 3B B0 20 06 
  1492)       538.7  Rx         0428  6  00 00 00 10 00 00 
  1493)       539.8  Rx         0263  8  03 00 00 00 00 00 00 00 
  1494)       540.0  Rx         078A  8  01 00 01 00 78 5D 2C 5E 
  1495)       540.2  Rx         0132  6  10 96 E4 FF F1 3F 
  1496)       540.8  Rx         0282  8  04 35 12 09 C8 B4 02 24 
  1497)       542.8  Rx         0201  8  02 00 00 00 00 00 00 00 
  1498)       543.0  Rx         0682  8  00 00 00 40 04 04 10 15 
  1499)       543.6  Rx         0129  8  88 27 B0 60 00 20 FF 3F 
  1500)       543.8  Rx         0261  8  8A 29 29 02 80 5C E1 C9 
  1501)       544.0  Rx         0249  4  D3 03 00 00 
  1502)       544.2  Rx         0423  7  00 00 10 00 00 00 00 
  1503)       544.4  Rx         0448  6  00 00 10 10 00 00 
  1504)       544.7  Rx         0719  8  0C B0 0F 00 50 00 20 00 
  1505)       544.9  Rx         03F5  8  00 00 C8 38 82 0C 00 00 
  1506)       546.1  Rx         0118  8  FE 6B 32 00 00 48 00 00 
  1507)       546.4  Rx         0266  8  00 00 01 20 00 00 9F 01 
  1508)       546.6  Rx         0257  8  76 4E 1F 00 00 A0 0F 01 
  1509)       546.8  Rx         01F8  4  00 00 00 00 
  1510)       547.8  Rx         02C1  8  B3 1A 98 00 00 00 00 00 
  1511)       548.1  Rx         01D8  8  29 00 00 00 00 00 A0 A2 
  1512)       548.3  Rx         01E5  8  02 AC 00 00 00 00 20 B4 
  1513)       548.5  Rx         039D  5  3E 55 21 28 00 
  1514)       548.8  Rx         03E2  7  02 00 00 00 00 C0 00 
  1515)       549.1  Rx         03C2  8  00 55 55 55 00 00 65 05 
  1516)       549.8  Rx         02C3  8  55 03 A8 06 00 00 12 A5 
  1517)       550.0  Rx         0243  8  04 FC A3 F3 01 7D FF FF 
  1518)       550.2  Rx         0132  6  0D 96 E4 FF EA 3F 
  1519)       550.5  Rx         02E1  8  FC 1F 8B 19 97 81 09 00 
  1520)       550.7  Rx         0379  8  00 00 08 48 33 3F 21 00 
  1521)       550.9  Rx         03A1  8  C1 FF FF C9 3D 00 30 B5 
  1522)       551.2  Rx         022B  8  FF FF FF FF FF FF FF FF 
  1523)       552.6  Rx         023E  8  F4 01 3A A6 FA FC 1F 2A 
  1524)       552.9  Rx         0289  8  00 00 00 00 00 00 80 12 
  1525)       553.1  Rx         03A2  8  01 00 10 00 00 00 00 00 
  1526)       553.6  Rx         0129  8  5F 28 B0 60 00 20 FF 3F 
  1527)       554.6  Rx         0708  5  2B 20 0A 00 00 
  1528)       555.2  Rx         0234  8  2E 19 03 40 37 00 D4 30 
  1529)       555.6  Rx         0473  8  00 00 03 00 00 00 00 00 
  1530)       555.8  Rx         02D1  2  FF 01 
  1531)       556.0  Rx         0324  8  21 52 EB 40 9D 01 00 00 
  1532)       556.3  Rx         0545  8  02 00 04 00 00 00 B0 00 
  1533)       556.4  Rx         05F3  3  6B E0 21 
